date Mon Jun 29 09:41:20.987 pm 2026
base hex  timestamps absolute
internal events logged
// version 8.5.0
Begin Triggerblock Mon Jun 29 09:41:20.987 pm 2026
   0.000000 Start of measurement
   0.000000 1  aa              Rx   d 8 1A 6F 1A 6F 1A 6F 1A 6F   Length = 0 BitCount = 0 ID = 170
   0.000157 1  ba              Rx   d 4 40 66 00 64   Length = 0 BitCount = 0 ID = 186
   0.000416 1  226             Rx   d 8 80 00 00 00 00 00 00 00   Length = 0 BitCount = 0 ID = 550
   0.005289 1  361             Rx   d 8 00 29 00 00 00 00 00 00   Length = 0 BitCount = 0 ID = 865
   0.005536 1  3f9             Rx   d 8 47 58 11 02 00 00 00 B6   Length = 0 BitCount = 0 ID = 1017
   0.006327 1  2c1             Rx   d 8 08 00 00 FF F8 C0 00 8A   Length = 0 BitCount = 0 ID = 705
   0.007993 1  aa              Rx   d 8 1A 6F 1A 6F 1A 6F 1A 6F   Length = 0 BitCount = 0 ID = 170
   0.008249 1  b4              Rx   d 8 00 00 00 00 00 00 00 BC   Length = 0 BitCount = 0 ID = 180
   0.008408 1  220             Rx   d 4 00 00 00 26   Length = 0 BitCount = 0 ID = 544
   0.013455 1  1c4             Rx   d 8 04 8F 23 08 48 00 7F 52   Length = 0 BitCount = 0 ID = 452
   0.015991 1  aa              Rx   d 8 1A 6F 1A 6F 1A 6F 1A 6F   Length = 0 BitCount = 0 ID = 170
   0.023988 1  aa              Rx   d 8 1A 6F 1A 6F 1A 6F 1A 6F   Length = 0 BitCount = 0 ID = 170
   0.024163 1  ba              Rx   d 4 40 66 00 64   Length = 0 BitCount = 0 ID = 186
   0.024410 1  226             Rx   d 8 80 00 00 00 00 00 00 00   Length = 0 BitCount = 0 ID = 550
   0.028836 1  1d0             Rx   d 8 08 FD 09 00 00 00 00 E7   Length = 0 BitCount = 0 ID = 464
   0.029715 1  3d0             Rx   d 1 00   Length = 0 BitCount = 0 ID = 976
   0.031990 1  aa              Rx   d 8 1A 6F 1A 6F 1A 6F 1A 6F   Length = 0 BitCount = 0 ID = 170
   0.032230 1  b4              Rx   d 8 00 00 00 00 00 00 00 BC   Length = 0 BitCount = 0 ID = 180
   0.032403 1  220             Rx   d 4 00 00 00 26   Length = 0 BitCount = 0 ID = 544
   0.037014 1  1c4             Rx   d 8 04 90 23 08 48 00 7F 53   Length = 0 BitCount = 0 ID = 452
   0.038038 1  2c1             Rx   d 8 08 00 00 FF F3 C0 00 85   Length = 0 BitCount = 0 ID = 705
   0.038142 1  354             Rx   d 1 13   Length = 0 BitCount = 0 ID = 852
   0.039986 1  aa              Rx   d 8 1A 6F 1A 6F 1A 6F 1A 6F   Length = 0 BitCount = 0 ID = 170
   0.047988 1  aa              Rx   d 8 1A 6F 1A 6F 1A 6F 1A 6F   Length = 0 BitCount = 0 ID = 170
   0.048145 1  ba              Rx   d 4 40 66 00 64   Length = 0 BitCount = 0 ID = 186
   0.048390 1  226             Rx   d 8 80 00 00 00 00 00 00 00   Length = 0 BitCount = 0 ID = 550
   0.055988 1  aa              Rx   d 8 1A 6F 1A 6F 1A 6F 1A 6F   Length = 0 BitCount = 0 ID = 170
   0.056230 1  b4              Rx   d 8 00 00 00 00 00 00 00 BC   Length = 0 BitCount = 0 ID = 180
   0.056405 1  220             Rx   d 4 00 00 00 26   Length = 0 BitCount = 0 ID = 544
   0.060574 1  1c4             Rx   d 8 04 90 23 08 48 00 7F 53   Length = 0 BitCount = 0 ID = 452
   0.060817 1  1d0             Rx   d 8 08 FB 09 00 00 00 00 E5   Length = 0 BitCount = 0 ID = 464
   0.063992 1  aa              Rx   d 8 1A 6F 1A 6F 1A 6F 1A 6F   Length = 0 BitCount = 0 ID = 170
   0.069793 1  2c1             Rx   d 8 08 00 00 FF FB C0 00 8D   Length = 0 BitCount = 0 ID = 705
   0.070032 1  361             Rx   d 8 00 29 00 00 00 00 00 00   Length = 0 BitCount = 0 ID = 865
   0.071993 1  aa              Rx   d 8 1A 6F 1A 6F 1A 6F 1A 6F   Length = 0 BitCount = 0 ID = 170
   0.072150 1  ba              Rx   d 4 40 66 00 64   Length = 0 BitCount = 0 ID = 186
   0.072409 1  226             Rx   d 8 80 00 00 00 00 00 00 00   Length = 0 BitCount = 0 ID = 550
   0.079983 1  aa              Rx   d 8 1A 6F 1A 6F 1A 6F 1A 6F   Length = 0 BitCount = 0 ID = 170
   0.080240 1  b4              Rx   d 8 00 00 00 00 00 00 00 BC   Length = 0 BitCount = 0 ID = 180
   0.080398 1  220             Rx   d 4 00 00 00 26   Length = 0 BitCount = 0 ID = 544
   0.084128 1  1c4             Rx   d 8 04 90 23 08 48 00 7F 53   Length = 0 BitCount = 0 ID = 452
   0.087995 1  aa              Rx   d 8 1A 6F 1A 6F 1A 6F 1A 6F   Length = 0 BitCount = 0 ID = 170
   0.092324 1  1d0             Rx   d 8 08 FF 09 00 00 00 00 E9   Length = 0 BitCount = 0 ID = 464
   0.095987 1  aa              Rx   d 8 1A 6F 1A 6F 1A 6F 1A 6F   Length = 0 BitCount = 0 ID = 170
   0.096161 1  ba              Rx   d 4 40 66 00 64   Length = 0 BitCount = 0 ID = 186
   0.096408 1  226             Rx   d 8 80 00 00 00 00 00 00 00   Length = 0 BitCount = 0 ID = 550
   0.101521 1  2c1             Rx   d 8 08 00 00 FF F6 C0 00 88   Length = 0 BitCount = 0 ID = 705
   0.102894 1  610             Rx   d 8 20 00 00 64 C0 00 00 00   Length = 0 BitCount = 0 ID = 1552
   0.103994 1  aa              Rx   d 8 1A 6F 1A 6F 1A 6F 1A 6F   Length = 0 BitCount = 0 ID = 170
   0.104250 1  b4              Rx   d 8 00 00 00 00 00 00 00 BC   Length = 0 BitCount = 0 ID = 180
   0.104408 1  220             Rx   d 4 00 00 00 26   Length = 0 BitCount = 0 ID = 544
   0.107652 1  1c4             Rx   d 8 04 90 23 08 48 00 7F 53   Length = 0 BitCount = 0 ID = 452
   0.111994 1  aa              Rx   d 8 1A 6F 1A 6F 1A 6F 1A 6F   Length = 0 BitCount = 0 ID = 170
   0.119990 1  aa              Rx   d 8 1A 6F 1A 6F 1A 6F 1A 6F   Length = 0 BitCount = 0 ID = 170
   0.120146 1  ba              Rx   d 4 40 66 00 64   Length = 0 BitCount = 0 ID = 186
   0.120392 1  226             Rx   d 8 80 00 00 00 00 00 00 00   Length = 0 BitCount = 0 ID = 550
   0.124063 1  1d0             Rx   d 8 08 FE 09 00 00 00 00 E8   Length = 0 BitCount = 0 ID = 464
   0.127984 1  aa              Rx   d 8 1A 6F 1A 6F 1A 6F 1A 6F   Length = 0 BitCount = 0 ID = 170
   0.128224 1  b4              Rx   d 8 00 00 00 00 00 00 00 BC   Length = 0 BitCount = 0 ID = 180
   0.128397 1  220             Rx   d 4 00 00 00 26   Length = 0 BitCount = 0 ID = 544
   0.131205 1  1c4             Rx   d 8 04 8E 23 08 48 00 7F 51   Length = 0 BitCount = 0 ID = 452
   0.133267 1  2c1             Rx   d 8 08 00 00 FF F2 C0 00 84   Length = 0 BitCount = 0 ID = 705
   0.134275 1  361             Rx   d 8 00 29 00 00 00 00 00 00   Length = 0 BitCount = 0 ID = 865
   0.135983 1  aa              Rx   d 8 1A 6F 1A 6F 1A 6F 1A 6F   Length = 0 BitCount = 0 ID = 170
   0.143986 1  aa              Rx   d 8 1A 6F 1A 6F 1A 6F 1A 6F   Length = 0 BitCount = 0 ID = 170
   0.144159 1  ba              Rx   d 4 40 66 00 64   Length = 0 BitCount = 0 ID = 186
   0.144405 1  226             Rx   d 8 80 00 00 00 00 00 00 00   Length = 0 BitCount = 0 ID = 550
   0.151986 1  aa              Rx   d 8 1A 6F 1A 6F 1A 6F 1A 6F   Length = 0 BitCount = 0 ID = 170
   0.152228 1  b4              Rx   d 8 00 00 00 00 00 00 00 BC   Length = 0 BitCount = 0 ID = 180
   0.152404 1  220             Rx   d 4 00 00 00 26   Length = 0 BitCount = 0 ID = 544
   0.154756 1  1c4             Rx   d 8 04 8D 23 08 48 00 7F 50   Length = 0 BitCount = 0 ID = 452
   0.155786 1  1d0             Rx   d 8 08 FF 09 00 00 00 00 E9   Length = 0 BitCount = 0 ID = 464
   0.159990 1  aa              Rx   d 8 1A 6F 1A 6F 1A 6F 1A 6F   Length = 0 BitCount = 0 ID = 170
   0.165000 1  2c1             Rx   d 8 08 00 00 FF F3 C0 00 85   Length = 0 BitCount = 0 ID = 705
   0.167989 1  aa              Rx   d 8 1A 6F 1A 6F 1A 6F 1A 6F   Length = 0 BitCount = 0 ID = 170
   0.168146 1  ba              Rx   d 4 40 66 00 64   Length = 0 BitCount = 0 ID = 186
   0.168406 1  226             Rx   d 8 80 00 00 00 00 00 00 00   Length = 0 BitCount = 0 ID = 550
   0.168648 1  4c3             Rx   d 8 04 00 00 02 00 00 00 00   Length = 0 BitCount = 0 ID = 1219
   0.175985 1  aa              Rx   d 8 1A 6F 1A 6F 1A 6F 1A 6F   Length = 0 BitCount = 0 ID = 170
   0.176224 1  b4              Rx   d 8 00 00 00 00 00 00 00 BC   Length = 0 BitCount = 0 ID = 180
   0.176399 1  220             Rx   d 4 00 00 00 26   Length = 0 BitCount = 0 ID = 544
   0.178324 1  1c4             Rx   d 8 04 8C 23 08 48 00 7F 4F   Length = 0 BitCount = 0 ID = 452
   0.183977 1  aa              Rx   d 8 1A 6F 1A 6F 1A 6F 1A 6F   Length = 0 BitCount = 0 ID = 170
   0.187523 1  1d0             Rx   d 8 08 FC 09 00 00 00 00 E6   Length = 0 BitCount = 0 ID = 464
   0.191986 1  aa              Rx   d 8 1A 6F 1A 6F 1A 6F 1A 6F   Length = 0 BitCount = 0 ID = 170
   0.192161 1  ba              Rx   d 4 40 66 00 64   Length = 0 BitCount = 0 ID = 186
   0.192407 1  226             Rx   d 8 80 00 00 00 00 00 00 00   Length = 0 BitCount = 0 ID = 550
   0.196747 1  2c1             Rx   d 8 08 00 00 FF F1 C0 00 83   Length = 0 BitCount = 0 ID = 705
   0.198807 1  361             Rx   d 8 00 29 00 00 00 00 00 00   Length = 0 BitCount = 0 ID = 865
   0.199977 1  aa              Rx   d 8 1A 6F 1A 6F 1A 6F 1A 6F   Length = 0 BitCount = 0 ID = 170
   0.200218 1  b4              Rx   d 8 00 00 00 00 00 00 00 BC   Length = 0 BitCount = 0 ID = 180
   0.200389 1  220             Rx   d 4 00 00 00 26   Length = 0 BitCount = 0 ID = 544
   0.201850 1  1c4             Rx   d 8 04 8D 23 08 48 00 7F 50   Length = 0 BitCount = 0 ID = 452
   0.207978 1  aa              Rx   d 8 1A 6F 1A 6F 1A 6F 1A 6F   Length = 0 BitCount = 0 ID = 170
   0.215969 1  aa              Rx   d 8 1A 6F 1A 6F 1A 6F 1A 6F   Length = 0 BitCount = 0 ID = 170
   0.216143 1  ba              Rx   d 4 40 66 00 64   Length = 0 BitCount = 0 ID = 186
   0.216388 1  226             Rx   d 8 80 00 00 00 00 00 00 00   Length = 0 BitCount = 0 ID = 550
   0.219305 1  1d0             Rx   d 8 08 FC 09 00 00 00 00 E6   Length = 0 BitCount = 0 ID = 464
   0.223982 1  aa              Rx   d 8 1A 6F 1A 6F 1A 6F 1A 6F   Length = 0 BitCount = 0 ID = 170
   0.224223 1  b4              Rx   d 8 00 00 00 00 00 00 00 BC   Length = 0 BitCount = 0 ID = 180
   0.224398 1  220             Rx   d 4 00 00 00 26   Length = 0 BitCount = 0 ID = 544
   0.225404 1  1c4             Rx   d 8 04 93 23 08 48 00 7F 56   Length = 0 BitCount = 0 ID = 452
   0.228488 1  2c1             Rx   d 8 08 00 00 FF F1 C0 00 83   Length = 0 BitCount = 0 ID = 705
   0.231981 1  aa              Rx   d 8 1A 6F 1A 6F 1A 6F 1A 6F   Length = 0 BitCount = 0 ID = 170
   0.237571 1  354             Rx   d 1 13   Length = 0 BitCount = 0 ID = 852
   0.237692 1  3d3             Rx   d 2 01 4D   Length = 0 BitCount = 0 ID = 979
   0.239990 1  aa              Rx   d 8 1A 6F 1A 6F 1A 6F 1A 6F   Length = 0 BitCount = 0 ID = 170
   0.240148 1  ba              Rx   d 4 40 66 00 64   Length = 0 BitCount = 0 ID = 186
   0.240394 1  226             Rx   d 8 80 00 00 00 00 00 00 00   Length = 0 BitCount = 0 ID = 550
   0.247992 1  aa              Rx   d 8 1A 6F 1A 6F 1A 6F 1A 6F   Length = 0 BitCount = 0 ID = 170
   0.248234 1  b4              Rx   d 8 00 00 00 00 00 00 00 BC   Length = 0 BitCount = 0 ID = 180
   0.248411 1  220             Rx   d 4 00 00 00 26   Length = 0 BitCount = 0 ID = 544
   0.248943 1  1c4             Rx   d 8 04 91 23 08 48 00 7F 54   Length = 0 BitCount = 0 ID = 452
   0.251007 1  1d0             Rx   d 8 08 FB 09 00 00 00 00 E5   Length = 0 BitCount = 0 ID = 464
   0.255091 1  3f9             Rx   d 8 47 58 11 02 00 00 00 B6   Length = 0 BitCount = 0 ID = 1017
   0.255985 1  aa              Rx   d 8 1A 6F 1A 6F 1A 6F 1A 6F   Length = 0 BitCount = 0 ID = 170
   0.260257 1  2c1             Rx   d 8 08 00 00 FF FB C0 00 8D   Length = 0 BitCount = 0 ID = 705
   0.263281 1  361             Rx   d 8 00 29 00 00 00 00 00 00   Length = 0 BitCount = 0 ID = 865
   0.263969 1  aa              Rx   d 8 1A 6F 1A 6F 1A 6F 1A 6F   Length = 0 BitCount = 0 ID = 170
   0.264143 1  ba              Rx   d 4 40 66 00 64   Length = 0 BitCount = 0 ID = 186
   0.264387 1  226             Rx   d 8 80 00 00 00 00 00 00 00   Length = 0 BitCount = 0 ID = 550
   0.271978 1  aa              Rx   d 8 1A 6F 1A 6F 1A 6F 1A 6F   Length = 0 BitCount = 0 ID = 170
   0.272215 1  b4              Rx   d 8 00 00 00 00 00 00 00 BC   Length = 0 BitCount = 0 ID = 180
   0.272390 1  220             Rx   d 4 00 00 00 26   Length = 0 BitCount = 0 ID = 544
   0.272630 1  1c4             Rx   d 8 04 8F 23 08 48 00 7F 52   Length = 0 BitCount = 0 ID = 452
   0.272871 1  3b7             Rx   d 8 00 00 00 00 00 00 00 00   Length = 0 BitCount = 0 ID = 951
   0.279532 1  3d0             Rx   d 1 00   Length = 0 BitCount = 0 ID = 976
   0.279974 1  aa              Rx   d 8 1A 6F 1A 6F 1A 6F 1A 6F   Length = 0 BitCount = 0 ID = 170
   0.280849 1  3b1             Rx   d 8 00 00 02 0A 00 08 00 00   Length = 0 BitCount = 0 ID = 945
   0.282740 1  1d0             Rx   d 8 08 FF 09 00 00 00 00 E9   Length = 0 BitCount = 0 ID = 464
   0.283000 1  620             Rx   d 8 10 00 00 00 00 00 00 10   Length = 0 BitCount = 0 ID = 1568
   0.287973 1  aa              Rx   d 8 1A 6F 1A 6F 1A 6F 1A 6F   Length = 0 BitCount = 0 ID = 170
   0.288130 1  ba              Rx   d 4 40 66 00 64   Length = 0 BitCount = 0 ID = 186
   0.288376 1  226             Rx   d 8 80 00 00 00 00 00 00 00   Length = 0 BitCount = 0 ID = 550
   0.291944 1  2c1             Rx   d 8 08 00 00 FF F4 C0 00 86   Length = 0 BitCount = 0 ID = 705
   0.295959 1  aa              Rx   d 8 1A 6F 1A 6F 1A 6F 1A 6F   Length = 0 BitCount = 0 ID = 170
   0.296202 1  b4              Rx   d 8 00 00 00 00 00 00 00 BC   Length = 0 BitCount = 0 ID = 180
   0.296444 1  1c4             Rx   d 8 04 8B 23 08 48 00 7F 4E   Length = 0 BitCount = 0 ID = 452
   0.296616 1  220             Rx   d 4 00 00 00 26   Length = 0 BitCount = 0 ID = 544
   0.303962 1  aa              Rx   d 8 1A 6F 1A 6F 1A 6F 1A 6F   Length = 0 BitCount = 0 ID = 170
   0.311954 1  aa              Rx   d 8 1A 6F 1A 6F 1A 6F 1A 6F   Length = 0 BitCount = 0 ID = 170
   0.312129 1  ba              Rx   d 4 40 66 00 64   Length = 0 BitCount = 0 ID = 186
   0.312375 1  226             Rx   d 8 80 00 00 00 00 00 00 00   Length = 0 BitCount = 0 ID = 550
   0.314486 1  1d0             Rx   d 8 08 FB 09 00 00 00 00 E5   Length = 0 BitCount = 0 ID = 464
   0.319598 1  1c4             Rx   d 8 04 87 23 08 48 00 7F 4A   Length = 0 BitCount = 0 ID = 452
   0.319953 1  aa              Rx   d 8 1A 6F 1A 6F 1A 6F 1A 6F   Length = 0 BitCount = 0 ID = 170
   0.320210 1  b4              Rx   d 8 00 00 00 00 00 00 00 BC   Length = 0 BitCount = 0 ID = 180
   0.320386 1  220             Rx   d 4 00 00 00 26   Length = 0 BitCount = 0 ID = 544
   0.323709 1  2c1             Rx   d 8 08 00 00 FF F2 C0 00 84   Length = 0 BitCount = 0 ID = 705
   0.324733 1  4c1             Rx   d 8 01 00 00 03 00 00 00 00   Length = 0 BitCount = 0 ID = 1217
   0.327800 1  361             Rx   d 8 00 29 00 00 00 00 00 00   Length = 0 BitCount = 0 ID = 865
   0.328024 1  aa              Rx   d 8 1A 6F 1A 6F 1A 6F 1A 6F   Length = 0 BitCount = 0 ID = 170
   0.335962 1  aa              Rx   d 8 1A 6F 1A 6F 1A 6F 1A 6F   Length = 0 BitCount = 0 ID = 170
   0.336136 1  ba              Rx   d 4 40 66 00 64   Length = 0 BitCount = 0 ID = 186
   0.336381 1  226             Rx   d 8 80 00 00 00 00 00 00 00   Length = 0 BitCount = 0 ID = 550
   0.343140 1  1c4             Rx   d 8 04 88 23 08 48 00 7F 4B   Length = 0 BitCount = 0 ID = 452
   0.343967 1  aa              Rx   d 8 1A 6F 1A 6F 1A 6F 1A 6F   Length = 0 BitCount = 0 ID = 170
   0.344210 1  b4              Rx   d 8 00 00 00 00 00 00 00 BC   Length = 0 BitCount = 0 ID = 180
   0.344386 1  220             Rx   d 4 00 00 00 26   Length = 0 BitCount = 0 ID = 544
   0.346236 1  1d0             Rx   d 8 08 F7 09 00 00 00 00 E1   Length = 0 BitCount = 0 ID = 464
   0.351970 1  aa              Rx   d 8 1A 6F 1A 6F 1A 6F 1A 6F   Length = 0 BitCount = 0 ID = 170
   0.355440 1  2c1             Rx   d 8 08 00 00 FF F2 C0 00 84   Length = 0 BitCount = 0 ID = 705
   0.359970 1  aa              Rx   d 8 1A 6F 1A 6F 1A 6F 1A 6F   Length = 0 BitCount = 0 ID = 170
   0.360145 1  ba              Rx   d 4 40 66 00 64   Length = 0 BitCount = 0 ID = 186
   0.360391 1  226             Rx   d 8 80 00 00 00 00 00 00 00   Length = 0 BitCount = 0 ID = 550
   0.366721 1  1c4             Rx   d 8 04 8E 23 08 48 00 7F 51   Length = 0 BitCount = 0 ID = 452
   0.367969 1  aa              Rx   d 8 1A 6F 1A 6F 1A 6F 1A 6F   Length = 0 BitCount = 0 ID = 170
   0.368228 1  b4              Rx   d 8 00 00 00 00 00 00 00 BC   Length = 0 BitCount = 0 ID = 180
   0.368400 1  220             Rx   d 4 00 00 00 26   Length = 0 BitCount = 0 ID = 544
   0.375978 1  aa              Rx   d 8 1A 6F 1A 6F 1A 6F 1A 6F   Length = 0 BitCount = 0 ID = 170
   0.377993 1  1d0             Rx   d 8 08 F3 09 00 00 00 00 DD   Length = 0 BitCount = 0 ID = 464
   0.383988 1  aa              Rx   d 8 1A 6F 1A 6F 1A 6F 1A 6F   Length = 0 BitCount = 0 ID = 170
   0.384162 1  ba              Rx   d 4 40 66 00 64   Length = 0 BitCount = 0 ID = 186
   0.384409 1  226             Rx   d 8 80 00 00 00 00 00 00 00   Length = 0 BitCount = 0 ID = 550
   0.387202 1  2c1             Rx   d 8 08 00 00 FF F3 C0 00 85   Length = 0 BitCount = 0 ID = 705
   0.390275 1  1c4             Rx   d 8 04 87 23 08 48 00 7F 4A   Length = 0 BitCount = 0 ID = 452
   0.391997 1  aa              Rx   d 8 1A 6F 1A 6F 1A 6F 1A 6F   Length = 0 BitCount = 0 ID = 170
   0.392240 1  b4              Rx   d 8 00 00 00 00 00 00 00 BC   Length = 0 BitCount = 0 ID = 180
   0.392417 1  220             Rx   d 4 00 00 00 26   Length = 0 BitCount = 0 ID = 544
   0.392656 1  361             Rx   d 8 00 29 00 00 00 00 00 00   Length = 0 BitCount = 0 ID = 865
   0.399983 1  aa              Rx   d 8 1A 6F 1A 6F 1A 6F 1A 6F   Length = 0 BitCount = 0 ID = 170
   0.401292 1  4ac             Rx   d 8 98 00 00 00 41 00 03 80   Length = 0 BitCount = 0 ID = 1196
   0.402288 1  4bc             Rx   d 8 00 00 00 00 00 00 00 00   Length = 0 BitCount = 0 ID = 1212
   0.407980 1  aa              Rx   d 8 1A 6F 1A 6F 1A 6F 1A 6F   Length = 0 BitCount = 0 ID = 170
   0.408153 1  ba              Rx   d 4 40 66 00 64   Length = 0 BitCount = 0 ID = 186
   0.408400 1  226             Rx   d 8 80 00 00 00 00 00 00 00   Length = 0 BitCount = 0 ID = 550
   0.409723 1  1d0             Rx   d 8 08 F4 09 00 00 00 00 DE   Length = 0 BitCount = 0 ID = 464
   0.413807 1  1c4             Rx   d 8 04 80 23 08 48 00 7F 43   Length = 0 BitCount = 0 ID = 452
   0.415980 1  aa              Rx   d 8 1A 6F 1A 6F 1A 6F 1A 6F   Length = 0 BitCount = 0 ID = 170
   0.416237 1  b4              Rx   d 8 00 00 00 00 00 00 00 BC   Length = 0 BitCount = 0 ID = 180
   0.416397 1  220             Rx   d 4 00 00 00 26   Length = 0 BitCount = 0 ID = 544
   0.418935 1  2c1             Rx   d 8 08 00 00 FF EF C0 00 81   Length = 0 BitCount = 0 ID = 705
   0.423995 1  aa              Rx   d 8 1A 6F 1A 6F 1A 6F 1A 6F   Length = 0 BitCount = 0 ID = 170
   0.431985 1  aa              Rx   d 8 1A 6F 1A 6F 1A 6F 1A 6F   Length = 0 BitCount = 0 ID = 170
   0.432160 1  ba              Rx   d 4 40 66 00 64   Length = 0 BitCount = 0 ID = 186
   0.432402 1  226             Rx   d 8 80 00 00 00 00 00 00 00   Length = 0 BitCount = 0 ID = 550
   0.437346 1  1c4             Rx   d 8 04 7D 23 08 48 00 7F 40   Length = 0 BitCount = 0 ID = 452
   0.437468 1  354             Rx   d 1 18   Length = 0 BitCount = 0 ID = 852
   0.439990 1  aa              Rx   d 8 1A 6F 1A 6F 1A 6F 1A 6F   Length = 0 BitCount = 0 ID = 170
   0.440232 1  b4              Rx   d 8 00 00 00 00 00 00 00 BC   Length = 0 BitCount = 0 ID = 180
   0.440411 1  220             Rx   d 4 00 00 00 26   Length = 0 BitCount = 0 ID = 544
   0.441442 1  1d0             Rx   d 8 08 F0 09 00 00 00 00 DA   Length = 0 BitCount = 0 ID = 464
   0.447995 1  aa              Rx   d 8 1A 6F 1A 6F 1A 6F 1A 6F   Length = 0 BitCount = 0 ID = 170
   0.450676 1  2c1             Rx   d 8 08 00 00 FF EC C0 00 7E   Length = 0 BitCount = 0 ID = 705
   0.455994 1  aa              Rx   d 8 1A 6F 1A 6F 1A 6F 1A 6F   Length = 0 BitCount = 0 ID = 170
   0.456152 1  ba              Rx   d 4 40 66 00 64   Length = 0 BitCount = 0 ID = 186
   0.456416 1  226             Rx   d 8 80 00 00 00 00 00 00 00   Length = 0 BitCount = 0 ID = 550
   0.456844 1  361             Rx   d 8 00 29 00 00 00 00 00 00   Length = 0 BitCount = 0 ID = 865
   0.460916 1  1c4             Rx   d 8 04 81 23 08 48 00 7F 44   Length = 0 BitCount = 0 ID = 452
   0.463980 1  aa              Rx   d 8 1A 6F 1A 6F 1A 6F 1A 6F   Length = 0 BitCount = 0 ID = 170
   0.464239 1  b4              Rx   d 8 00 00 00 00 00 00 00 BC   Length = 0 BitCount = 0 ID = 180
   0.464397 1  220             Rx   d 4 00 00 00 26   Length = 0 BitCount = 0 ID = 544
   0.471994 1  aa              Rx   d 8 1A 6F 1A 6F 1A 6F 1A 6F   Length = 0 BitCount = 0 ID = 170
   0.473236 1  1d0             Rx   d 8 08 E8 09 00 00 00 00 D2   Length = 0 BitCount = 0 ID = 464
   0.480001 1  aa              Rx   d 8 1A 6F 1A 6F 1A 6F 1A 6F   Length = 0 BitCount = 0 ID = 170
   0.480157 1  ba              Rx   d 4 40 66 00 64   Length = 0 BitCount = 0 ID = 186
   0.480420 1  226             Rx   d 8 80 00 00 00 00 00 00 00   Length = 0 BitCount = 0 ID = 550
   0.482430 1  2c1             Rx   d 8 08 00 00 FF ED C0 00 7F   Length = 0 BitCount = 0 ID = 705
   0.484472 1  1c4             Rx   d 8 04 85 23 08 48 00 7F 48   Length = 0 BitCount = 0 ID = 452
   0.487991 1  aa              Rx   d 8 1A 6F 1A 6F 1A 6F 1A 6F   Length = 0 BitCount = 0 ID = 170
   0.488250 1  b4              Rx   d 8 00 00 00 00 00 00 00 BC   Length = 0 BitCount = 0 ID = 180
   0.488411 1  220             Rx   d 4 00 00 00 26   Length = 0 BitCount = 0 ID = 544
   0.495992 1  aa              Rx   d 8 1A 6F 1A 6F 1A 6F 1A 6F   Length = 0 BitCount = 0 ID = 170
   0.503989 1  aa              Rx   d 8 1A 6F 1A 6F 1A 6F 1A 6F   Length = 0 BitCount = 0 ID = 170
   0.504159 1  ba              Rx   d 4 40 66 00 64   Length = 0 BitCount = 0 ID = 186
   0.504406 1  226             Rx   d 8 80 00 00 00 00 00 00 00   Length = 0 BitCount = 0 ID = 550
   0.504940 1  1d0             Rx   d 8 08 E4 09 00 00 00 00 CE   Length = 0 BitCount = 0 ID = 464
   0.505183 1  3f9             Rx   d 8 47 58 11 02 00 00 00 B6   Length = 0 BitCount = 0 ID = 1017
   0.508015 1  1c4             Rx   d 8 04 88 23 08 48 00 7F 4B   Length = 0 BitCount = 0 ID = 452
   0.512005 1  aa              Rx   d 8 1A 6F 1A 6F 1A 6F 1A 6F   Length = 0 BitCount = 0 ID = 170
   0.512245 1  b4              Rx   d 8 00 00 00 00 00 00 00 BC   Length = 0 BitCount = 0 ID = 180
   0.512423 1  220             Rx   d 4 00 00 00 26   Length = 0 BitCount = 0 ID = 544
   0.514176 1  2c1             Rx   d 8 08 00 00 FF F3 C0 00 85   Length = 0 BitCount = 0 ID = 705
   0.520003 1  aa              Rx   d 8 1A 6F 1A 6F 1A 6F 1A 6F   Length = 0 BitCount = 0 ID = 170
   0.521319 1  361             Rx   d 8 00 29 00 00 00 00 00 00   Length = 0 BitCount = 0 ID = 865
   0.527995 1  aa              Rx   d 8 1A 6F 1A 6F 1A 6F 1A 6F   Length = 0 BitCount = 0 ID = 170
   0.528170 1  ba              Rx   d 4 40 66 00 64   Length = 0 BitCount = 0 ID = 186
   0.528413 1  226             Rx   d 8 80 00 00 00 00 00 00 00   Length = 0 BitCount = 0 ID = 550
   0.529381 1  3d0             Rx   d 1 00   Length = 0 BitCount = 0 ID = 976
   0.531560 1  1c4             Rx   d 8 04 89 23 08 48 00 7F 4C   Length = 0 BitCount = 0 ID = 452
   0.536005 1  aa              Rx   d 8 1A 6F 1A 6F 1A 6F 1A 6F   Length = 0 BitCount = 0 ID = 170
   0.536265 1  b4              Rx   d 8 00 00 00 00 00 00 00 BC   Length = 0 BitCount = 0 ID = 180
   0.536423 1  220             Rx   d 4 00 00 00 26   Length = 0 BitCount = 0 ID = 544
   0.536699 1  1d0             Rx   d 8 08 E6 09 00 00 00 00 D0   Length = 0 BitCount = 0 ID = 464
   0.544007 1  aa              Rx   d 8 1A 6F 1A 6F 1A 6F 1A 6F   Length = 0 BitCount = 0 ID = 170
   0.545900 1  2c1             Rx   d 8 08 00 00 FF F5 C0 00 87   Length = 0 BitCount = 0 ID = 705
   0.551989 1  aa              Rx   d 8 1A 6F 1A 6F 1A 6F 1A 6F   Length = 0 BitCount = 0 ID = 170
   0.552180 1  ba              Rx   d 4 40 66 00 64   Length = 0 BitCount = 0 ID = 186
   0.552423 1  226             Rx   d 8 80 00 00 00 00 00 00 00   Length = 0 BitCount = 0 ID = 550
   0.555113 1  1c4             Rx   d 8 04 87 23 08 48 00 7F 4A   Length = 0 BitCount = 0 ID = 452
   0.559998 1  aa              Rx   d 8 1A 6F 1A 6F 1A 6F 1A 6F   Length = 0 BitCount = 0 ID = 170
   0.560260 1  b4              Rx   d 8 00 00 00 00 00 00 00 BC   Length = 0 BitCount = 0 ID = 180
   0.560433 1  220             Rx   d 4 00 00 00 26   Length = 0 BitCount = 0 ID = 544
   0.560670 1  3b7             Rx   d 8 00 00 00 00 00 00 00 00   Length = 0 BitCount = 0 ID = 951
   0.567995 1  aa              Rx   d 8 1A 6F 1A 6F 1A 6F 1A 6F   Length = 0 BitCount = 0 ID = 170
   0.568407 1  1d0             Rx   d 8 08 E8 09 00 00 00 00 D2   Length = 0 BitCount = 0 ID = 464
   0.575984 1  aa              Rx   d 8 1A 6F 1A 6F 1A 6F 1A 6F   Length = 0 BitCount = 0 ID = 170
   0.576175 1  ba              Rx   d 4 40 66 00 64   Length = 0 BitCount = 0 ID = 186
   0.576418 1  226             Rx   d 8 80 00 00 00 00 00 00 00   Length = 0 BitCount = 0 ID = 550
   0.577639 1  2c1             Rx   d 8 08 00 00 FF F4 C0 00 86   Length = 0 BitCount = 0 ID = 705
   0.578654 1  1c4             Rx   d 8 04 89 23 08 48 00 7F 4C   Length = 0 BitCount = 0 ID = 452
   0.582908 1  620             Rx   d 8 10 00 00 00 00 00 00 10   Length = 0 BitCount = 0 ID = 1568
   0.583975 1  aa              Rx   d 8 1A 6F 1A 6F 1A 6F 1A 6F   Length = 0 BitCount = 0 ID = 170
   0.584255 1  b4              Rx   d 8 00 00 00 00 00 00 00 BC   Length = 0 BitCount = 0 ID = 180
   0.584411 1  220             Rx   d 4 00 00 00 26   Length = 0 BitCount = 0 ID = 544
   0.585820 1  361             Rx   d 8 00 29 00 00 00 00 00 00   Length = 0 BitCount = 0 ID = 865
   0.591977 1  aa              Rx   d 8 1A 6F 1A 6F 1A 6F 1A 6F   Length = 0 BitCount = 0 ID = 170
   0.599973 1  aa              Rx   d 8 1A 6F 1A 6F 1A 6F 1A 6F   Length = 0 BitCount = 0 ID = 170
   0.600211 1  1d0             Rx   d 8 08 EB 09 00 00 00 00 D5   Length = 0 BitCount = 0 ID = 464
   0.600390 1  ba              Rx   d 4 40 66 00 64   Length = 0 BitCount = 0 ID = 186
   0.600633 1  226             Rx   d 8 80 00 00 00 00 00 00 00   Length = 0 BitCount = 0 ID = 550
   0.602195 1  1c4             Rx   d 8 04 8B 23 08 48 00 7F 4E   Length = 0 BitCount = 0 ID = 452
   0.602883 1  610             Rx   d 8 20 00 00 64 C0 00 00 00   Length = 0 BitCount = 0 ID = 1552
   0.608174 1  aa              Rx   d 8 1A 6F 1A 6F 1A 6F 1A 6F   Length = 0 BitCount = 0 ID = 170
   0.608417 1  b4              Rx   d 8 00 00 00 00 00 00 00 BC   Length = 0 BitCount = 0 ID = 180
   0.608591 1  220             Rx   d 4 00 00 00 26   Length = 0 BitCount = 0 ID = 544
   0.609359 1  2c1             Rx   d 8 08 00 00 FF F8 C0 00 8A   Length = 0 BitCount = 0 ID = 705
   0.614251 1  611             Rx   d 8 21 00 00 00 00 02 6D C3   Length = 0 BitCount = 0 ID = 1553
   0.616173 1  aa              Rx   d 8 1A 6F 1A 6F 1A 6F 1A 6F   Length = 0 BitCount = 0 ID = 170
   0.624160 1  aa              Rx   d 8 1A 6F 1A 6F 1A 6F 1A 6F   Length = 0 BitCount = 0 ID = 170
   0.624336 1  ba              Rx   d 4 40 66 00 64   Length = 0 BitCount = 0 ID = 186
   0.624576 1  226             Rx   d 8 80 00 00 00 00 00 00 00   Length = 0 BitCount = 0 ID = 550
   0.625728 1  1c4             Rx   d 8 04 8D 23 08 48 00 7F 50   Length = 0 BitCount = 0 ID = 452
   0.631650 1  4dd             Rx   d 8 1E 00 00 02 00 00 00 00   Length = 0 BitCount = 0 ID = 1245
   0.631876 1  1d0             Rx   d 8 08 ED 09 00 00 00 00 D7   Length = 0 BitCount = 0 ID = 464
   0.632205 1  aa              Rx   d 8 1A 6F 1A 6F 1A 6F 1A 6F   Length = 0 BitCount = 0 ID = 170
   0.632466 1  b4              Rx   d 8 00 00 00 00 00 00 00 BC   Length = 0 BitCount = 0 ID = 180
   0.632622 1  220             Rx   d 4 00 00 00 26   Length = 0 BitCount = 0 ID = 544
   0.636876 1  354             Rx   d 1 15   Length = 0 BitCount = 0 ID = 852
   0.640155 1  aa              Rx   d 8 1A 6F 1A 6F 1A 6F 1A 6F   Length = 0 BitCount = 0 ID = 170
   0.641102 1  2c1             Rx   d 8 08 00 00 FF F7 C0 00 89   Length = 0 BitCount = 0 ID = 705
   0.648155 1  aa              Rx   d 8 1A 6F 1A 6F 1A 6F 1A 6F   Length = 0 BitCount = 0 ID = 170
   0.648331 1  ba              Rx   d 4 40 66 00 64   Length = 0 BitCount = 0 ID = 186
   0.648574 1  226             Rx   d 8 80 00 00 00 00 00 00 00   Length = 0 BitCount = 0 ID = 550
   0.649297 1  1c4             Rx   d 8 04 8B 23 08 48 00 7F 4E   Length = 0 BitCount = 0 ID = 452
   0.650312 1  361             Rx   d 8 00 29 00 00 00 00 00 00   Length = 0 BitCount = 0 ID = 865
   0.656152 1  aa              Rx   d 8 1A 6F 1A 6F 1A 6F 1A 6F   Length = 0 BitCount = 0 ID = 170
   0.656394 1  b4              Rx   d 8 00 00 00 00 00 00 00 BC   Length = 0 BitCount = 0 ID = 180
   0.656568 1  220             Rx   d 4 00 00 00 26   Length = 0 BitCount = 0 ID = 544
   0.663616 1  1d0             Rx   d 8 08 F2 09 00 00 00 00 DC   Length = 0 BitCount = 0 ID = 464
   0.664182 1  aa              Rx   d 8 1A 6F 1A 6F 1A 6F 1A 6F   Length = 0 BitCount = 0 ID = 170
   0.667725 1  3bc             Rx   d 8 00 20 00 00 00 00 00 00   Length = 0 BitCount = 0 ID = 956
   0.672187 1  aa              Rx   d 8 1A 6F 1A 6F 1A 6F 1A 6F   Length = 0 BitCount = 0 ID = 170
   0.672349 1  ba              Rx   d 4 40 66 00 64   Length = 0 BitCount = 0 ID = 186
   0.672592 1  226             Rx   d 8 80 00 00 00 00 00 00 00   Length = 0 BitCount = 0 ID = 550
   0.672836 1  1c4             Rx   d 8 04 89 23 08 48 00 7F 4C   Length = 0 BitCount = 0 ID = 452
   0.673078 1  2c1             Rx   d 8 08 00 00 FF F5 C0 00 87   Length = 0 BitCount = 0 ID = 705
   0.680179 1  aa              Rx   d 8 1A 6F 1A 6F 1A 6F 1A 6F   Length = 0 BitCount = 0 ID = 170
   0.680426 1  b4              Rx   d 8 00 00 00 00 00 00 00 BC   Length = 0 BitCount = 0 ID = 180
   0.680599 1  220             Rx   d 4 00 00 00 26   Length = 0 BitCount = 0 ID = 544
   0.688181 1  aa              Rx   d 8 1A 6F 1A 6F 1A 6F 1A 6F   Length = 0 BitCount = 0 ID = 170
   0.695338 1  1d0             Rx   d 8 08 F4 09 00 00 00 00 DE   Length = 0 BitCount = 0 ID = 464
   0.696180 1  aa              Rx   d 8 1A 6F 1A 6F 1A 6F 1A 6F   Length = 0 BitCount = 0 ID = 170
   0.696338 1  ba              Rx   d 4 40 66 00 64   Length = 0 BitCount = 0 ID = 186
   0.696582 1  1c4             Rx   d 8 04 8B 23 08 48 00 7F 4E   Length = 0 BitCount = 0 ID = 452
   0.696824 1  226             Rx   d 8 80 00 00 00 00 00 00 00   Length = 0 BitCount = 0 ID = 550
   0.704174 1  aa              Rx   d 8 1A 6F 1A 6F 1A 6F 1A 6F   Length = 0 BitCount = 0 ID = 170
   0.704419 1  b4              Rx   d 8 00 00 00 00 00 00 00 BC   Length = 0 BitCount = 0 ID = 180
   0.704591 1  220             Rx   d 4 00 00 00 26   Length = 0 BitCount = 0 ID = 544
   0.704833 1  2c1             Rx   d 8 08 00 00 FF F6 C0 00 88   Length = 0 BitCount = 0 ID = 705
   0.712173 1  aa              Rx   d 8 1A 6F 1A 6F 1A 6F 1A 6F   Length = 0 BitCount = 0 ID = 170
   0.714801 1  361             Rx   d 8 00 29 00 00 00 00 00 00   Length = 0 BitCount = 0 ID = 865
   0.719911 1  1c4             Rx   d 8 04 89 23 08 48 00 7F 4C   Length = 0 BitCount = 0 ID = 452
   0.720171 1  aa              Rx   d 8 1A 6F 1A 6F 1A 6F 1A 6F   Length = 0 BitCount = 0 ID = 170
   0.720332 1  ba              Rx   d 4 40 66 00 64   Length = 0 BitCount = 0 ID = 186
   0.720589 1  226             Rx   d 8 80 00 00 00 00 00 00 00   Length = 0 BitCount = 0 ID = 550
   0.727092 1  1d0             Rx   d 8 08 F4 09 00 00 00 00 DE   Length = 0 BitCount = 0 ID = 464
   0.728174 1  aa              Rx   d 8 1A 6F 1A 6F 1A 6F 1A 6F   Length = 0 BitCount = 0 ID = 170
   0.728418 1  b4              Rx   d 8 00 00 00 00 00 00 00 BC   Length = 0 BitCount = 0 ID = 180
   0.728591 1  220             Rx   d 4 00 00 00 26   Length = 0 BitCount = 0 ID = 544
   0.736172 1  aa              Rx   d 8 1A 6F 1A 6F 1A 6F 1A 6F   Length = 0 BitCount = 0 ID = 170
   0.736419 1  2c1             Rx   d 8 08 00 00 FF EA C0 00 7C   Length = 0 BitCount = 0 ID = 705
   0.743472 1  1c4             Rx   d 8 04 8D 23 08 48 00 7F 50   Length = 0 BitCount = 0 ID = 452
   0.744190 1  aa              Rx   d 8 1A 6F 1A 6F 1A 6F 1A 6F   Length = 0 BitCount = 0 ID = 170
   0.744350 1  ba              Rx   d 4 40 66 00 64   Length = 0 BitCount = 0 ID = 186
   0.744609 1  226             Rx   d 8 80 00 00 00 00 00 00 00   Length = 0 BitCount = 0 ID = 550
   0.752181 1  aa              Rx   d 8 1A 6F 1A 6F 1A 6F 1A 6F   Length = 0 BitCount = 0 ID = 170
   0.752443 1  b4              Rx   d 8 00 00 00 00 00 00 00 BC   Length = 0 BitCount = 0 ID = 180
   0.752600 1  220             Rx   d 4 00 00 00 26   Length = 0 BitCount = 0 ID = 544
   0.754729 1  3f9             Rx   d 8 47 58 11 02 00 00 00 B6   Length = 0 BitCount = 0 ID = 1017
   0.758835 1  1d0             Rx   d 8 08 F6 09 00 00 00 00 E0   Length = 0 BitCount = 0 ID = 464
   0.760183 1  aa              Rx   d 8 1A 6F 1A 6F 1A 6F 1A 6F   Length = 0 BitCount = 0 ID = 170
   0.761786 1  3d3             Rx   d 2 01 4C   Length = 0 BitCount = 0 ID = 979
   0.767016 1  1c4             Rx   d 8 04 8E 23 08 48 00 7F 51   Length = 0 BitCount = 0 ID = 452
   0.768064 1  2c1             Rx   d 8 08 00 00 FF EB C0 00 7D   Length = 0 BitCount = 0 ID = 705
   0.768276 1  aa              Rx   d 8 1A 6F 1A 6F 1A 6F 1A 6F   Length = 0 BitCount = 0 ID = 170
   0.768450 1  ba              Rx   d 4 40 66 00 64   Length = 0 BitCount = 0 ID = 186
   0.768692 1  226             Rx   d 8 80 00 00 00 00 00 00 00   Length = 0 BitCount = 0 ID = 550
   0.776189 1  aa              Rx   d 8 1A 6F 1A 6F 1A 6F 1A 6F   Length = 0 BitCount = 0 ID = 170
   0.776434 1  b4              Rx   d 8 00 00 00 00 00 00 00 BC   Length = 0 BitCount = 0 ID = 180
   0.776592 1  220             Rx   d 4 00 00 00 26   Length = 0 BitCount = 0 ID = 544
   0.779322 1  361             Rx   d 8 00 29 00 00 00 00 00 00   Length = 0 BitCount = 0 ID = 865
   0.779446 1  3d0             Rx   d 1 00   Length = 0 BitCount = 0 ID = 976
   0.784181 1  aa              Rx   d 8 1A 6F 1A 6F 1A 6F 1A 6F   Length = 0 BitCount = 0 ID = 170
   0.790582 1  1c4             Rx   d 8 04 8C 23 08 48 00 7F 4F   Length = 0 BitCount = 0 ID = 452
   0.790824 1  1d0             Rx   d 8 08 F6 09 00 00 00 00 E0   Length = 0 BitCount = 0 ID = 464
   0.792181 1  aa              Rx   d 8 1A 6F 1A 6F 1A 6F 1A 6F   Length = 0 BitCount = 0 ID = 170
   0.792341 1  ba              Rx   d 4 40 66 00 64   Length = 0 BitCount = 0 ID = 186
   0.792597 1  226             Rx   d 8 80 00 00 00 00 00 00 00   Length = 0 BitCount = 0 ID = 550
   0.799790 1  2c1             Rx   d 8 08 00 00 FF EC C0 00 7E   Length = 0 BitCount = 0 ID = 705
   0.800181 1  aa              Rx   d 8 1A 6F 1A 6F 1A 6F 1A 6F   Length = 0 BitCount = 0 ID = 170
   0.800426 1  b4              Rx   d 8 00 00 00 00 00 00 00 BC   Length = 0 BitCount = 0 ID = 180
   0.800598 1  220             Rx   d 4 00 00 00 26   Length = 0 BitCount = 0 ID = 544
   0.808192 1  aa              Rx   d 8 1A 6F 1A 6F 1A 6F 1A 6F   Length = 0 BitCount = 0 ID = 170
   0.814138 1  1c4             Rx   d 8 04 90 23 08 48 00 7F 53   Length = 0 BitCount = 0 ID = 452
   0.816182 1  aa              Rx   d 8 1A 6F 1A 6F 1A 6F 1A 6F   Length = 0 BitCount = 0 ID = 170
   0.816361 1  ba              Rx   d 4 40 66 00 64   Length = 0 BitCount = 0 ID = 186
   0.816603 1  226             Rx   d 8 80 00 00 00 00 00 00 00   Length = 0 BitCount = 0 ID = 550
   0.822334 1  1d0             Rx   d 8 08 FA 09 00 00 00 00 E4   Length = 0 BitCount = 0 ID = 464
   0.824204 1  aa              Rx   d 8 1A 6F 1A 6F 1A 6F 1A 6F   Length = 0 BitCount = 0 ID = 170
   0.824447 1  b4              Rx   d 8 00 00 00 00 00 00 00 BC   Length = 0 BitCount = 0 ID = 180
   0.824621 1  220             Rx   d 4 00 00 00 26   Length = 0 BitCount = 0 ID = 544
   0.831572 1  2c1             Rx   d 8 08 00 00 FF EB C0 00 7D   Length = 0 BitCount = 0 ID = 705
   0.832188 1  aa              Rx   d 8 1A 6F 1A 6F 1A 6F 1A 6F   Length = 0 BitCount = 0 ID = 170
   0.836537 1  354             Rx   d 1 15   Length = 0 BitCount = 0 ID = 852
   0.837688 1  1c4             Rx   d 8 04 92 23 08 48 00 7F 55   Length = 0 BitCount = 0 ID = 452
   0.840192 1  aa              Rx   d 8 1A 6F 1A 6F 1A 6F 1A 6F   Length = 0 BitCount = 0 ID = 170
   0.840354 1  ba              Rx   d 4 40 66 00 64   Length = 0 BitCount = 0 ID = 186
   0.840613 1  226             Rx   d 8 80 00 00 00 00 00 00 00   Length = 0 BitCount = 0 ID = 550
   0.843856 1  361             Rx   d 8 00 29 00 00 00 00 00 00   Length = 0 BitCount = 0 ID = 865
   0.848191 1  aa              Rx   d 8 1A 6F 1A 6F 1A 6F 1A 6F   Length = 0 BitCount = 0 ID = 170
   0.848437 1  b4              Rx   d 8 00 00 00 00 00 00 00 BC   Length = 0 BitCount = 0 ID = 180
   0.848609 1  220             Rx   d 4 00 00 00 26   Length = 0 BitCount = 0 ID = 544
   0.848863 1  3b7             Rx   d 8 00 00 00 00 00 00 00 00   Length = 0 BitCount = 0 ID = 951
   0.854079 1  1d0             Rx   d 8 08 FB 09 00 00 00 00 E5   Length = 0 BitCount = 0 ID = 464
   0.856192 1  aa              Rx   d 8 1A 6F 1A 6F 1A 6F 1A 6F   Length = 0 BitCount = 0 ID = 170
   0.861236 1  1c4             Rx   d 8 04 92 23 08 48 00 7F 55   Length = 0 BitCount = 0 ID = 452
   0.863280 1  2c1             Rx   d 8 08 00 00 FF F2 C0 00 84   Length = 0 BitCount = 0 ID = 705
   0.864188 1  aa              Rx   d 8 1A 6F 1A 6F 1A 6F 1A 6F   Length = 0 BitCount = 0 ID = 170
   0.864349 1  ba              Rx   d 4 40 66 00 64   Length = 0 BitCount = 0 ID = 186
   0.864609 1  226             Rx   d 8 80 00 00 00 00 00 00 00   Length = 0 BitCount = 0 ID = 550
   0.872190 1  aa              Rx   d 8 1A 6F 1A 6F 1A 6F 1A 6F   Length = 0 BitCount = 0 ID = 170
   0.872437 1  b4              Rx   d 8 00 00 00 00 00 00 00 BC   Length = 0 BitCount = 0 ID = 180
   0.872595 1  220             Rx   d 4 00 00 00 26   Length = 0 BitCount = 0 ID = 544
   0.872838 1  442             Rx   d 8 42 04 00 00 02 00 00 00   Length = 0 BitCount = 0 ID = 1090
   0.880180 1  aa              Rx   d 8 1A 6F 1A 6F 1A 6F 1A 6F   Length = 0 BitCount = 0 ID = 170
   0.882914 1  620             Rx   d 8 10 00 00 00 00 00 00 10   Length = 0 BitCount = 0 ID = 1568
   0.884803 1  1c4             Rx   d 8 04 93 23 08 48 00 7F 56   Length = 0 BitCount = 0 ID = 452
   0.885833 1  1d0             Rx   d 8 09 01 09 00 00 00 00 EC   Length = 0 BitCount = 0 ID = 464
   0.888169 1  aa              Rx   d 8 1A 6F 1A 6F 1A 6F 1A 6F   Length = 0 BitCount = 0 ID = 170
   0.888346 1  ba              Rx   d 4 40 66 00 64   Length = 0 BitCount = 0 ID = 186
   0.888587 1  226             Rx   d 8 80 00 00 00 00 00 00 00   Length = 0 BitCount = 0 ID = 550
   0.893228 1  622             Rx   d 8 12 00 00 00 00 00 00 00   Length = 0 BitCount = 0 ID = 1570
   0.895036 1  2c1             Rx   d 8 08 00 00 FF EF C0 00 81   Length = 0 BitCount = 0 ID = 705
   0.896178 1  aa              Rx   d 8 1A 6F 1A 6F 1A 6F 1A 6F   Length = 0 BitCount = 0 ID = 170
   0.896420 1  b4              Rx   d 8 00 00 00 00 00 00 00 BC   Length = 0 BitCount = 0 ID = 180
   0.896592 1  220             Rx   d 4 00 00 00 26   Length = 0 BitCount = 0 ID = 544
   0.900970 1  4ac             Rx   d 8 98 00 00 00 42 00 03 80   Length = 0 BitCount = 0 ID = 1196
   0.904173 1  aa              Rx   d 8 1A 6F 1A 6F 1A 6F 1A 6F   Length = 0 BitCount = 0 ID = 170
   0.908320 1  1c4             Rx   d 8 04 8D 23 08 48 00 7F 50   Length = 0 BitCount = 0 ID = 452
   0.908560 1  361             Rx   d 8 00 29 00 00 00 00 00 00   Length = 0 BitCount = 0 ID = 865
   0.912163 1  aa              Rx   d 8 1A 6F 1A 6F 1A 6F 1A 6F   Length = 0 BitCount = 0 ID = 170
   0.912325 1  ba              Rx   d 4 40 66 00 64   Length = 0 BitCount = 0 ID = 186
   0.912584 1  226             Rx   d 8 80 00 00 00 00 00 00 00   Length = 0 BitCount = 0 ID = 550
   0.917558 1  1d0             Rx   d 8 09 01 09 00 00 00 00 EC   Length = 0 BitCount = 0 ID = 464
   0.920167 1  aa              Rx   d 8 1A 6F 1A 6F 1A 6F 1A 6F   Length = 0 BitCount = 0 ID = 170
   0.920414 1  b4              Rx   d 8 00 00 00 00 00 00 00 BC   Length = 0 BitCount = 0 ID = 180
   0.920587 1  220             Rx   d 4 00 00 00 26   Length = 0 BitCount = 0 ID = 544
   0.926763 1  2c1             Rx   d 8 08 00 00 FF E8 C0 00 7A   Length = 0 BitCount = 0 ID = 705
   0.928173 1  aa              Rx   d 8 1A 6F 1A 6F 1A 6F 1A 6F   Length = 0 BitCount = 0 ID = 170
   0.931878 1  1c4             Rx   d 8 04 85 23 08 48 00 7F 48   Length = 0 BitCount = 0 ID = 452
   0.936167 1  aa              Rx   d 8 1A 6F 1A 6F 1A 6F 1A 6F   Length = 0 BitCount = 0 ID = 170
   0.936329 1  ba              Rx   d 4 40 66 00 64   Length = 0 BitCount = 0 ID = 186
   0.936570 1  226             Rx   d 8 80 00 00 00 00 00 00 00   Length = 0 BitCount = 0 ID = 550
   0.937963 1  3bb             Rx   d 4 00 00 A8 00   Length = 0 BitCount = 0 ID = 955
   0.944169 1  aa              Rx   d 8 1A 6F 1A 6F 1A 6F 1A 6F   Length = 0 BitCount = 0 ID = 170
   0.944414 1  b4              Rx   d 8 00 00 00 00 00 00 00 BC   Length = 0 BitCount = 0 ID = 180
   0.944586 1  220             Rx   d 4 00 00 00 26   Length = 0 BitCount = 0 ID = 544
   0.949291 1  1d0             Rx   d 8 09 01 09 00 00 00 00 EC   Length = 0 BitCount = 0 ID = 464
   0.952166 1  aa              Rx   d 8 1A 6F 1A 6F 1A 6F 1A 6F   Length = 0 BitCount = 0 ID = 170
   0.955424 1  1c4             Rx   d 8 04 8A 23 08 48 00 7F 4D   Length = 0 BitCount = 0 ID = 452
   0.958513 1  2c1             Rx   d 8 08 00 00 FF E3 C0 00 75   Length = 0 BitCount = 0 ID = 705
   0.960161 1  aa              Rx   d 8 1A 6F 1A 6F 1A 6F 1A 6F   Length = 0 BitCount = 0 ID = 170
   0.960324 1  ba              Rx   d 4 40 66 00 64   Length = 0 BitCount = 0 ID = 186
   0.960580 1  226             Rx   d 8 80 00 00 00 00 00 00 00   Length = 0 BitCount = 0 ID = 550
   0.968145 1  aa              Rx   d 8 1A 6F 1A 6F 1A 6F 1A 6F   Length = 0 BitCount = 0 ID = 170
   0.968390 1  b4              Rx   d 8 00 00 00 00 00 00 00 BC   Length = 0 BitCount = 0 ID = 180
   0.968565 1  220             Rx   d 4 00 00 00 26   Length = 0 BitCount = 0 ID = 544
   0.972838 1  361             Rx   d 8 00 29 00 00 00 00 00 00   Length = 0 BitCount = 0 ID = 865
   0.976151 1  aa              Rx   d 8 1A 6F 1A 6F 1A 6F 1A 6F   Length = 0 BitCount = 0 ID = 170
   0.978987 1  1c4             Rx   d 8 04 8F 23 08 48 00 7F 52   Length = 0 BitCount = 0 ID = 452
   0.981031 1  1d0             Rx   d 8 08 FA 09 00 00 00 00 E4   Length = 0 BitCount = 0 ID = 464
   0.984155 1  aa              Rx   d 8 1A 6F 1A 6F 1A 6F 1A 6F   Length = 0 BitCount = 0 ID = 170
   0.984317 1  ba              Rx   d 4 40 66 00 64   Length = 0 BitCount = 0 ID = 186
   0.984560 1  226             Rx   d 8 80 00 00 00 00 00 00 00   Length = 0 BitCount = 0 ID = 550
   0.990257 1  2c1             Rx   d 8 08 00 00 FF E8 C0 00 7A   Length = 0 BitCount = 0 ID = 705
   0.992148 1  aa              Rx   d 8 1A 6F 1A 6F 1A 6F 1A 6F   Length = 0 BitCount = 0 ID = 170
   0.992393 1  b4              Rx   d 8 00 00 00 00 00 00 00 BC   Length = 0 BitCount = 0 ID = 180
   0.992563 1  220             Rx   d 4 00 00 00 26   Length = 0 BitCount = 0 ID = 544
   1.000157 1  aa              Rx   d 8 1A 6F 1A 6F 1A 6F 1A 6F   Length = 0 BitCount = 0 ID = 170
   1.002530 1  1c4             Rx   d 8 04 91 23 08 48 00 7F 54   Length = 0 BitCount = 0 ID = 452
   1.004590 1  3f9             Rx   d 8 47 58 11 02 00 00 00 B6   Length = 0 BitCount = 0 ID = 1017
   1.008159 1  aa              Rx   d 8 1A 6F 1A 6F 1A 6F 1A 6F   Length = 0 BitCount = 0 ID = 170
   1.008321 1  ba              Rx   d 4 40 66 00 64   Length = 0 BitCount = 0 ID = 186
   1.008564 1  226             Rx   d 8 80 00 00 00 00 00 00 00   Length = 0 BitCount = 0 ID = 550
   1.012768 1  1d0             Rx   d 8 08 FA 09 00 00 00 00 E4   Length = 0 BitCount = 0 ID = 464
   1.016167 1  aa              Rx   d 8 1A 6F 1A 6F 1A 6F 1A 6F   Length = 0 BitCount = 0 ID = 170
   1.016414 1  b4              Rx   d 8 00 00 00 00 00 00 00 BC   Length = 0 BitCount = 0 ID = 180
   1.016587 1  220             Rx   d 4 00 00 00 26   Length = 0 BitCount = 0 ID = 544
   1.022009 1  2c1             Rx   d 8 08 00 00 FF ED C0 00 7F   Length = 0 BitCount = 0 ID = 705
   1.024172 1  aa              Rx   d 8 1A 6F 1A 6F 1A 6F 1A 6F   Length = 0 BitCount = 0 ID = 170
   1.026096 1  1c4             Rx   d 8 04 94 23 08 48 00 7F 57   Length = 0 BitCount = 0 ID = 452
   1.029048 1  3d0             Rx   d 1 00   Length = 0 BitCount = 0 ID = 976
   1.032159 1  aa              Rx   d 8 1A 6F 1A 6F 1A 6F 1A 6F   Length = 0 BitCount = 0 ID = 170
   1.032332 1  ba              Rx   d 4 40 66 00 64   Length = 0 BitCount = 0 ID = 186
   1.032576 1  226             Rx   d 8 80 00 00 00 00 00 00 00   Length = 0 BitCount = 0 ID = 550
   1.036210 1  354             Rx   d 1 14   Length = 0 BitCount = 0 ID = 852
   1.037352 1  361             Rx   d 8 00 29 00 00 00 00 00 00   Length = 0 BitCount = 0 ID = 865
   1.040177 1  aa              Rx   d 8 1A 6F 1A 6F 1A 6F 1A 6F   Length = 0 BitCount = 0 ID = 170
   1.040422 1  b4              Rx   d 8 00 00 00 00 00 00 00 BC   Length = 0 BitCount = 0 ID = 180
   1.040594 1  220             Rx   d 4 00 00 00 26   Length = 0 BitCount = 0 ID = 544
   1.044547 1  1d0             Rx   d 8 08 FC 09 00 00 00 00 E6   Length = 0 BitCount = 0 ID = 464
   1.048176 1  aa              Rx   d 8 1A 6F 1A 6F 1A 6F 1A 6F   Length = 0 BitCount = 0 ID = 170
   1.049640 1  1c4             Rx   d 8 04 91 23 08 48 00 7F 54   Length = 0 BitCount = 0 ID = 452
   1.053757 1  2c1             Rx   d 8 08 00 00 FF ED C0 00 7F   Length = 0 BitCount = 0 ID = 705
   1.056179 1  aa              Rx   d 8 1A 6F 1A 6F 1A 6F 1A 6F   Length = 0 BitCount = 0 ID = 170
   1.056340 1  ba              Rx   d 4 40 66 00 64   Length = 0 BitCount = 0 ID = 186
   1.056596 1  226             Rx   d 8 80 00 00 00 00 00 00 00   Length = 0 BitCount = 0 ID = 550
   1.064181 1  aa              Rx   d 8 1A 6F 1A 6F 1A 6F 1A 6F   Length = 0 BitCount = 0 ID = 170
   1.064424 1  b4              Rx   d 8 00 00 00 00 00 00 00 BC   Length = 0 BitCount = 0 ID = 180
   1.064597 1  220             Rx   d 4 00 00 00 26   Length = 0 BitCount = 0 ID = 544
   1.072195 1  aa              Rx   d 8 1A 6F 1A 6F 1A 6F 1A 6F   Length = 0 BitCount = 0 ID = 170
   1.073209 1  1c4             Rx   d 8 04 8F 23 08 48 00 7F 52   Length = 0 BitCount = 0 ID = 452
   1.076289 1  1d0             Rx   d 8 09 00 09 00 00 00 00 EB   Length = 0 BitCount = 0 ID = 464
   1.080205 1  aa              Rx   d 8 1A 6F 1A 6F 1A 6F 1A 6F   Length = 0 BitCount = 0 ID = 170
   1.080364 1  ba              Rx   d 4 40 66 00 64   Length = 0 BitCount = 0 ID = 186
   1.080621 1  226             Rx   d 8 80 00 00 00 00 00 00 00   Length = 0 BitCount = 0 ID = 550
   1.085543 1  2c1             Rx   d 8 08 00 00 FF EA C0 00 7C   Length = 0 BitCount = 0 ID = 705
   1.088201 1  aa              Rx   d 8 1A 6F 1A 6F 1A 6F 1A 6F   Length = 0 BitCount = 0 ID = 170
   1.088445 1  b4              Rx   d 8 00 00 00 00 00 00 00 BC   Length = 0 BitCount = 0 ID = 180
   1.088614 1  220             Rx   d 4 00 00 00 26   Length = 0 BitCount = 0 ID = 544
   1.096190 1  aa              Rx   d 8 1A 6F 1A 6F 1A 6F 1A 6F   Length = 0 BitCount = 0 ID = 170
   1.096763 1  1c4             Rx   d 8 04 8D 23 08 48 00 7F 50   Length = 0 BitCount = 0 ID = 452
   1.101892 1  361             Rx   d 8 00 29 00 00 00 00 00 00   Length = 0 BitCount = 0 ID = 865
   1.102839 1  610             Rx   d 8 20 00 00 64 C0 00 00 00   Length = 0 BitCount = 0 ID = 1552
   1.104197 1  aa              Rx   d 8 1A 6F 1A 6F 1A 6F 1A 6F   Length = 0 BitCount = 0 ID = 170
   1.104359 1  ba              Rx   d 4 40 66 00 64   Length = 0 BitCount = 0 ID = 186
   1.104618 1  226             Rx   d 8 80 00 00 00 00 00 00 00   Length = 0 BitCount = 0 ID = 550
   1.104861 1  4c3             Rx   d 8 04 00 00 02 00 00 00 00   Length = 0 BitCount = 0 ID = 1219
   1.108037 1  1d0             Rx   d 8 08 FE 09 00 00 00 00 E8   Length = 0 BitCount = 0 ID = 464
   1.112190 1  aa              Rx   d 8 1A 6F 1A 6F 1A 6F 1A 6F   Length = 0 BitCount = 0 ID = 170
   1.112437 1  b4              Rx   d 8 00 00 00 00 00 00 00 BC   Length = 0 BitCount = 0 ID = 180
   1.112610 1  220             Rx   d 4 00 00 00 26   Length = 0 BitCount = 0 ID = 544
   1.117246 1  2c1             Rx   d 8 08 00 00 FF E4 C0 00 76   Length = 0 BitCount = 0 ID = 705
   1.120193 1  aa              Rx   d 8 1A 6F 1A 6F 1A 6F 1A 6F   Length = 0 BitCount = 0 ID = 170
   1.120422 1  1c4             Rx   d 8 04 89 23 08 48 00 7F 4C   Length = 0 BitCount = 0 ID = 452
   1.128183 1  aa              Rx   d 8 1A 6F 1A 6F 1A 6F 1A 6F   Length = 0 BitCount = 0 ID = 170
   1.128357 1  ba              Rx   d 4 40 66 00 64   Length = 0 BitCount = 0 ID = 186
   1.128614 1  226             Rx   d 8 80 00 00 00 00 00 00 00   Length = 0 BitCount = 0 ID = 550
   1.136436 1  b4              Rx   d 8 00 00 00 00 00 00 00 BC   Length = 0 BitCount = 0 ID = 180
   1.136190 1  aa              Rx   d 8 1A 6F 1A 6F 1A 6F 1A 6F   Length = 0 BitCount = 0 ID = 170
   1.136608 1  220             Rx   d 4 00 00 00 26   Length = 0 BitCount = 0 ID = 544
   1.136850 1  3b7             Rx   d 8 00 00 00 00 00 00 00 00   Length = 0 BitCount = 0 ID = 951
   1.139763 1  1d0             Rx   d 8 08 FD 09 00 00 00 00 E7   Length = 0 BitCount = 0 ID = 464
   1.143851 1  1c4             Rx   d 8 04 87 23 08 48 00 7F 4A   Length = 0 BitCount = 0 ID = 452
   1.144197 1  aa              Rx   d 8 1A 6F 1A 6F 1A 6F 1A 6F   Length = 0 BitCount = 0 ID = 170
   1.149022 1  2c1             Rx   d 8 08 00 00 FF DF C0 00 71   Length = 0 BitCount = 0 ID = 705
   1.152197 1  aa              Rx   d 8 1A 6F 1A 6F 1A 6F 1A 6F   Length = 0 BitCount = 0 ID = 170
   1.152359 1  ba              Rx   d 4 40 66 00 64   Length = 0 BitCount = 0 ID = 186
   1.152615 1  226             Rx   d 8 80 00 00 00 00 00 00 00   Length = 0 BitCount = 0 ID = 550
   1.160199 1  aa              Rx   d 8 1A 6F 1A 6F 1A 6F 1A 6F   Length = 0 BitCount = 0 ID = 170
   1.160443 1  b4              Rx   d 8 00 00 00 00 00 00 00 BC   Length = 0 BitCount = 0 ID = 180
   1.160616 1  220             Rx   d 4 00 00 00 26   Length = 0 BitCount = 0 ID = 544
   1.166419 1  361             Rx   d 8 00 29 00 00 00 00 00 00   Length = 0 BitCount = 0 ID = 865
   1.167432 1  1c4             Rx   d 8 04 83 23 08 48 00 7F 46   Length = 0 BitCount = 0 ID = 452
   1.168204 1  aa              Rx   d 8 1A 6F 1A 6F 1A 6F 1A 6F   Length = 0 BitCount = 0 ID = 170
   1.171537 1  1d0             Rx   d 8 08 F7 09 00 00 00 00 E1   Length = 0 BitCount = 0 ID = 464
   1.176203 1  aa              Rx   d 8 1A 6F 1A 6F 1A 6F 1A 6F   Length = 0 BitCount = 0 ID = 170
   1.176381 1  ba              Rx   d 4 40 66 00 64   Length = 0 BitCount = 0 ID = 186
   1.176622 1  226             Rx   d 8 80 00 00 00 00 00 00 00   Length = 0 BitCount = 0 ID = 550
   1.180743 1  2c1             Rx   d 8 08 00 00 FF DF C0 00 71   Length = 0 BitCount = 0 ID = 705
   1.182805 1  620             Rx   d 8 10 00 00 00 00 00 00 10   Length = 0 BitCount = 0 ID = 1568
   1.184204 1  aa              Rx   d 8 1A 6F 1A 6F 1A 6F 1A 6F   Length = 0 BitCount = 0 ID = 170
   1.184450 1  b4              Rx   d 8 00 00 00 00 00 00 00 BC   Length = 0 BitCount = 0 ID = 180
   1.184623 1  220             Rx   d 4 00 00 00 26   Length = 0 BitCount = 0 ID = 544
   1.190992 1  1c4             Rx   d 8 04 80 23 08 48 00 7F 43   Length = 0 BitCount = 0 ID = 452
   1.192211 1  aa              Rx   d 8 1A 6F 1A 6F 1A 6F 1A 6F   Length = 0 BitCount = 0 ID = 170
   1.200222 1  aa              Rx   d 8 1A 6F 1A 6F 1A 6F 1A 6F   Length = 0 BitCount = 0 ID = 170
   1.200382 1  ba              Rx   d 4 40 66 00 64   Length = 0 BitCount = 0 ID = 186
   1.200624 1  226             Rx   d 8 80 00 00 00 00 00 00 00   Length = 0 BitCount = 0 ID = 550
   1.203288 1  1d0             Rx   d 8 08 F1 09 00 00 00 00 DB   Length = 0 BitCount = 0 ID = 464
   1.208209 1  aa              Rx   d 8 1A 6F 1A 6F 1A 6F 1A 6F   Length = 0 BitCount = 0 ID = 170
   1.208456 1  b4              Rx   d 8 00 00 00 00 00 00 00 BC   Length = 0 BitCount = 0 ID = 180
   1.208630 1  220             Rx   d 4 00 00 00 26   Length = 0 BitCount = 0 ID = 544
   1.212507 1  2c1             Rx   d 8 08 00 00 FF DC C0 00 6E   Length = 0 BitCount = 0 ID = 705
   1.214549 1  1c4             Rx   d 8 04 83 23 08 48 00 7F 46   Length = 0 BitCount = 0 ID = 452
   1.216216 1  aa              Rx   d 8 1A 6F 1A 6F 1A 6F 1A 6F   Length = 0 BitCount = 0 ID = 170
   1.224213 1  aa              Rx   d 8 1A 6F 1A 6F 1A 6F 1A 6F   Length = 0 BitCount = 0 ID = 170
   1.224388 1  ba              Rx   d 4 40 66 00 64   Length = 0 BitCount = 0 ID = 186
   1.224627 1  226             Rx   d 8 80 00 00 00 00 00 00 00   Length = 0 BitCount = 0 ID = 550
   1.230979 1  361             Rx   d 8 00 29 00 00 00 00 00 00   Length = 0 BitCount = 0 ID = 865
   1.232224 1  aa              Rx   d 8 1A 6F 1A 6F 1A 6F 1A 6F   Length = 0 BitCount = 0 ID = 170
   1.232470 1  b4              Rx   d 8 00 00 00 00 00 00 00 BC   Length = 0 BitCount = 0 ID = 180
   1.232642 1  220             Rx   d 4 00 00 00 26   Length = 0 BitCount = 0 ID = 544
   1.235061 1  1d0             Rx   d 8 08 EA 09 00 00 00 00 D4   Length = 0 BitCount = 0 ID = 464
   1.235305 1  4c1             Rx   d 8 01 00 00 03 00 00 00 00   Length = 0 BitCount = 0 ID = 1217
   1.235935 1  354             Rx   d 1 1B   Length = 0 BitCount = 0 ID = 852
   1.238100 1  1c4             Rx   d 8 04 84 23 08 48 00 7F 47   Length = 0 BitCount = 0 ID = 452
   1.240230 1  aa              Rx   d 8 1A 6F 1A 6F 1A 6F 1A 6F   Length = 0 BitCount = 0 ID = 170
   1.244284 1  2c1             Rx   d 8 08 00 00 FF E6 C0 00 78   Length = 0 BitCount = 0 ID = 705
   1.248230 1  aa              Rx   d 8 1A 6F 1A 6F 1A 6F 1A 6F   Length = 0 BitCount = 0 ID = 170
   1.248392 1  ba              Rx   d 4 40 66 00 64   Length = 0 BitCount = 0 ID = 186
   1.248635 1  226             Rx   d 8 80 00 00 00 00 00 00 00   Length = 0 BitCount = 0 ID = 550
   1.254501 1  3f9             Rx   d 8 47 58 11 02 00 00 00 B6   Length = 0 BitCount = 0 ID = 1017
   1.256235 1  aa              Rx   d 8 1A 6F 1A 6F 1A 6F 1A 6F   Length = 0 BitCount = 0 ID = 170
   1.256479 1  b4              Rx   d 8 00 00 00 00 00 00 00 BC   Length = 0 BitCount = 0 ID = 180
   1.256652 1  220             Rx   d 4 00 00 00 26   Length = 0 BitCount = 0 ID = 544
   1.261681 1  1c4             Rx   d 8 04 86 23 08 48 00 7F 49   Length = 0 BitCount = 0 ID = 452
   1.264236 1  aa              Rx   d 8 1A 6F 1A 6F 1A 6F 1A 6F   Length = 0 BitCount = 0 ID = 170
   1.266798 1  1d0             Rx   d 8 08 E8 09 00 00 00 00 D2   Length = 0 BitCount = 0 ID = 464
   1.272245 1  aa              Rx   d 8 1A 6F 1A 6F 1A 6F 1A 6F   Length = 0 BitCount = 0 ID = 170
   1.272406 1  ba              Rx   d 4 40 66 00 64   Length = 0 BitCount = 0 ID = 186
   1.272663 1  226             Rx   d 8 80 00 00 00 00 00 00 00   Length = 0 BitCount = 0 ID = 550
   1.276035 1  2c1             Rx   d 8 08 00 00 FF EE C0 00 80   Length = 0 BitCount = 0 ID = 705
   1.278965 1  3d0             Rx   d 1 00   Length = 0 BitCount = 0 ID = 976
   1.280245 1  aa              Rx   d 8 1A 6F 1A 6F 1A 6F 1A 6F   Length = 0 BitCount = 0 ID = 170
   1.280491 1  b4              Rx   d 8 00 00 00 00 00 00 00 BC   Length = 0 BitCount = 0 ID = 180
   1.280665 1  220             Rx   d 4 00 00 00 26   Length = 0 BitCount = 0 ID = 544
   1.280901 1  3b1             Rx   d 8 00 00 02 0A 00 08 00 00   Length = 0 BitCount = 0 ID = 945
   1.285245 1  1c4             Rx   d 8 04 8B 23 08 48 00 7F 4E   Length = 0 BitCount = 0 ID = 452
   1.286145 1  3d3             Rx   d 2 01 4B   Length = 0 BitCount = 0 ID = 979
   1.288256 1  aa              Rx   d 8 1A 6F 1A 6F 1A 6F 1A 6F   Length = 0 BitCount = 0 ID = 170
   1.295497 1  361             Rx   d 8 00 29 00 00 00 00 00 00   Length = 0 BitCount = 0 ID = 865
   1.296251 1  aa              Rx   d 8 1A 6F 1A 6F 1A 6F 1A 6F   Length = 0 BitCount = 0 ID = 170
   1.296411 1  ba              Rx   d 4 40 66 00 64   Length = 0 BitCount = 0 ID = 186
   1.296670 1  226             Rx   d 8 80 00 00 00 00 00 00 00   Length = 0 BitCount = 0 ID = 550
   1.298577 1  1d0             Rx   d 8 08 E8 09 00 00 00 00 D2   Length = 0 BitCount = 0 ID = 464
   1.304238 1  aa              Rx   d 8 1A 6F 1A 6F 1A 6F 1A 6F   Length = 0 BitCount = 0 ID = 170
   1.304502 1  b4              Rx   d 8 00 00 00 00 00 00 00 BC   Length = 0 BitCount = 0 ID = 180
   1.304659 1  220             Rx   d 4 00 00 00 26   Length = 0 BitCount = 0 ID = 544
   1.307766 1  2c1             Rx   d 8 08 00 00 FF F1 C0 00 83   Length = 0 BitCount = 0 ID = 705
   1.308799 1  1c4             Rx   d 8 04 8C 23 08 48 00 7F 4F   Length = 0 BitCount = 0 ID = 452
   1.312249 1  aa              Rx   d 8 1A 6F 1A 6F 1A 6F 1A 6F   Length = 0 BitCount = 0 ID = 170
   1.320265 1  aa              Rx   d 8 1A 6F 1A 6F 1A 6F 1A 6F   Length = 0 BitCount = 0 ID = 170
   1.320426 1  ba              Rx   d 4 40 66 00 64   Length = 0 BitCount = 0 ID = 186
   1.320681 1  226             Rx   d 8 80 00 00 00 00 00 00 00   Length = 0 BitCount = 0 ID = 550
   1.328258 1  aa              Rx   d 8 1A 6F 1A 6F 1A 6F 1A 6F   Length = 0 BitCount = 0 ID = 170
   1.328503 1  b4              Rx   d 8 00 00 00 00 00 00 00 BC   Length = 0 BitCount = 0 ID = 180
   1.328676 1  220             Rx   d 4 00 00 00 26   Length = 0 BitCount = 0 ID = 544
   1.330300 1  1d0             Rx   d 8 08 ED 09 00 00 00 00 D7   Length = 0 BitCount = 0 ID = 464
   1.332329 1  1c4             Rx   d 8 04 8A 23 08 48 00 7F 4D   Length = 0 BitCount = 0 ID = 452
   1.336256 1  aa              Rx   d 8 1A 6F 1A 6F 1A 6F 1A 6F   Length = 0 BitCount = 0 ID = 170
   1.339519 1  2c1             Rx   d 8 08 00 00 FF EE C0 00 80   Length = 0 BitCount = 0 ID = 705
   1.344255 1  aa              Rx   d 8 1A 6F 1A 6F 1A 6F 1A 6F   Length = 0 BitCount = 0 ID = 170
   1.344432 1  ba              Rx   d 4 40 66 00 64   Length = 0 BitCount = 0 ID = 186
   1.344675 1  226             Rx   d 8 80 00 00 00 00 00 00 00   Length = 0 BitCount = 0 ID = 550
   1.352256 1  aa              Rx   d 8 1A 6F 1A 6F 1A 6F 1A 6F   Length = 0 BitCount = 0 ID = 170
   1.352502 1  b4              Rx   d 8 00 00 00 00 00 00 00 BC   Length = 0 BitCount = 0 ID = 180
   1.352673 1  220             Rx   d 4 00 00 00 26   Length = 0 BitCount = 0 ID = 544
   1.355884 1  1c4             Rx   d 8 04 88 23 08 48 00 7F 4B   Length = 0 BitCount = 0 ID = 452
   1.359986 1  361             Rx   d 8 00 29 00 00 00 00 00 00   Length = 0 BitCount = 0 ID = 865
   1.360263 1  aa              Rx   d 8 1A 6F 1A 6F 1A 6F 1A 6F   Length = 0 BitCount = 0 ID = 170
   1.362050 1  1d0             Rx   d 8 08 EF 09 00 00 00 00 D9   Length = 0 BitCount = 0 ID = 464
   1.368254 1  aa              Rx   d 8 1A 6F 1A 6F 1A 6F 1A 6F   Length = 0 BitCount = 0 ID = 170
   1.368430 1  ba              Rx   d 4 40 66 00 64   Length = 0 BitCount = 0 ID = 186
   1.368670 1  226             Rx   d 8 80 00 00 00 00 00 00 00   Length = 0 BitCount = 0 ID = 550
   1.371244 1  2c1             Rx   d 8 08 00 00 FF EE C0 00 80   Length = 0 BitCount = 0 ID = 705
   1.376251 1  aa              Rx   d 8 1A 6F 1A 6F 1A 6F 1A 6F   Length = 0 BitCount = 0 ID = 170
   1.376495 1  b4              Rx   d 8 00 00 00 00 00 00 00 BC   Length = 0 BitCount = 0 ID = 180
   1.376669 1  220             Rx   d 4 00 00 00 26   Length = 0 BitCount = 0 ID = 544
   1.379430 1  1c4             Rx   d 8 04 89 23 08 48 00 7F 4C   Length = 0 BitCount = 0 ID = 452
   1.384250 1  aa              Rx   d 8 1A 6F 1A 6F 1A 6F 1A 6F   Length = 0 BitCount = 0 ID = 170
   1.392246 1  aa              Rx   d 8 1A 6F 1A 6F 1A 6F 1A 6F   Length = 0 BitCount = 0 ID = 170
   1.392404 1  ba              Rx   d 4 40 66 00 64   Length = 0 BitCount = 0 ID = 186
   1.392664 1  226             Rx   d 8 80 00 00 00 00 00 00 00   Length = 0 BitCount = 0 ID = 550
   1.393764 1  1d0             Rx   d 8 08 EF 09 00 00 00 00 D9   Length = 0 BitCount = 0 ID = 464
   1.400247 1  aa              Rx   d 8 1A 6F 1A 6F 1A 6F 1A 6F   Length = 0 BitCount = 0 ID = 170
   1.400494 1  b4              Rx   d 8 00 00 00 00 00 00 00 BC   Length = 0 BitCount = 0 ID = 180
   1.400668 1  220             Rx   d 4 00 00 00 26   Length = 0 BitCount = 0 ID = 544
   1.400894 1  4ac             Rx   d 8 98 00 00 00 59 00 03 80   Length = 0 BitCount = 0 ID = 1196
   1.401789 1  4bc             Rx   d 8 00 00 00 00 00 00 00 00   Length = 0 BitCount = 0 ID = 1212
   1.402992 1  1c4             Rx   d 8 04 87 23 08 48 00 7F 4A   Length = 0 BitCount = 0 ID = 452
   1.403234 1  2c1             Rx   d 8 08 00 00 FF EF C0 00 81   Length = 0 BitCount = 0 ID = 705
   1.408242 1  aa              Rx   d 8 1A 6F 1A 6F 1A 6F 1A 6F   Length = 0 BitCount = 0 ID = 170
   1.416243 1  aa              Rx   d 8 1A 6F 1A 6F 1A 6F 1A 6F   Length = 0 BitCount = 0 ID = 170
   1.416421 1  ba              Rx   d 4 40 66 00 64   Length = 0 BitCount = 0 ID = 186
   1.416657 1  226             Rx   d 8 80 00 00 00 00 00 00 00   Length = 0 BitCount = 0 ID = 550
   1.424255 1  aa              Rx   d 8 1A 6F 1A 6F 1A 6F 1A 6F   Length = 0 BitCount = 0 ID = 170
   1.424496 1  b4              Rx   d 8 00 00 00 00 00 00 00 BC   Length = 0 BitCount = 0 ID = 180
   1.424668 1  220             Rx   d 4 00 00 00 26   Length = 0 BitCount = 0 ID = 544
   1.424911 1  361             Rx   d 8 00 29 00 00 00 00 00 00   Length = 0 BitCount = 0 ID = 865
   1.425170 1  3b7             Rx   d 8 00 00 00 00 00 00 00 00   Length = 0 BitCount = 0 ID = 951
   1.425511 1  1d0             Rx   d 8 08 EF 09 00 00 00 00 D9   Length = 0 BitCount = 0 ID = 464
   1.426513 1  1c4             Rx   d 8 04 84 23 08 48 00 7F 47   Length = 0 BitCount = 0 ID = 452
   1.432255 1  aa              Rx   d 8 1A 6F 1A 6F 1A 6F 1A 6F   Length = 0 BitCount = 0 ID = 170
   1.434731 1  2c1             Rx   d 8 08 00 00 FF E9 C0 00 7B   Length = 0 BitCount = 0 ID = 705
   1.435626 1  354             Rx   d 1 21   Length = 0 BitCount = 0 ID = 852
   1.440263 1  aa              Rx   d 8 1A 6F 1A 6F 1A 6F 1A 6F   Length = 0 BitCount = 0 ID = 170
   1.440420 1  ba              Rx   d 4 40 66 00 64   Length = 0 BitCount = 0 ID = 186
   1.440661 1  226             Rx   d 8 80 00 00 00 00 00 00 00   Length = 0 BitCount = 0 ID = 550
   1.448265 1  aa              Rx   d 8 1A 6F 1A 6F 1A 6F 1A 6F   Length = 0 BitCount = 0 ID = 170
   1.448507 1  b4              Rx   d 8 00 00 00 00 00 00 00 BC   Length = 0 BitCount = 0 ID = 180
   1.448681 1  220             Rx   d 4 00 00 00 26   Length = 0 BitCount = 0 ID = 544
   1.450086 1  1c4             Rx   d 8 04 83 23 08 48 00 7F 46   Length = 0 BitCount = 0 ID = 452
   1.456265 1  aa              Rx   d 8 1A 6F 1A 6F 1A 6F 1A 6F   Length = 0 BitCount = 0 ID = 170
   1.457272 1  1d0             Rx   d 8 08 ED 09 00 00 00 00 D7   Length = 0 BitCount = 0 ID = 464
   1.464270 1  aa              Rx   d 8 1A 6F 1A 6F 1A 6F 1A 6F   Length = 0 BitCount = 0 ID = 170
   1.464425 1  ba              Rx   d 4 40 66 00 64   Length = 0 BitCount = 0 ID = 186
   1.464682 1  226             Rx   d 8 80 00 00 00 00 00 00 00   Length = 0 BitCount = 0 ID = 550
   1.466489 1  2c1             Rx   d 8 08 00 00 FF E9 C0 00 7B   Length = 0 BitCount = 0 ID = 705
   1.472262 1  aa              Rx   d 8 1A 6F 1A 6F 1A 6F 1A 6F   Length = 0 BitCount = 0 ID = 170
   1.472510 1  b4              Rx   d 8 00 00 00 00 00 00 00 BC   Length = 0 BitCount = 0 ID = 180
   1.472683 1  220             Rx   d 4 00 00 00 26   Length = 0 BitCount = 0 ID = 544
   1.473630 1  1c4             Rx   d 8 04 83 23 08 48 00 7F 46   Length = 0 BitCount = 0 ID = 452
   1.480267 1  aa              Rx   d 8 1A 6F 1A 6F 1A 6F 1A 6F   Length = 0 BitCount = 0 ID = 170
   1.482929 1  620             Rx   d 8 10 00 00 00 00 00 00 10   Length = 0 BitCount = 0 ID = 1568
   1.488266 1  aa              Rx   d 8 1A 6F 1A 6F 1A 6F 1A 6F   Length = 0 BitCount = 0 ID = 170
   1.488425 1  ba              Rx   d 4 40 66 00 64   Length = 0 BitCount = 0 ID = 186
   1.488683 1  226             Rx   d 8 80 00 00 00 00 00 00 00   Length = 0 BitCount = 0 ID = 550
   1.489029 1  1d0             Rx   d 8 08 EA 09 00 00 00 00 D4   Length = 0 BitCount = 0 ID = 464
   1.489275 1  361             Rx   d 8 00 29 00 00 00 00 00 00   Length = 0 BitCount = 0 ID = 865
   1.496272 1  aa              Rx   d 8 1A 6F 1A 6F 1A 6F 1A 6F   Length = 0 BitCount = 0 ID = 170
   1.496515 1  b4              Rx   d 8 00 00 00 00 00 00 00 BC   Length = 0 BitCount = 0 ID = 180
   1.496689 1  220             Rx   d 4 00 00 00 26   Length = 0 BitCount = 0 ID = 544
   1.497223 1  1c4             Rx   d 8 04 84 23 08 48 00 7F 47   Length = 0 BitCount = 0 ID = 452
   1.498253 1  2c1             Rx   d 8 08 00 00 FF E9 C0 00 7B   Length = 0 BitCount = 0 ID = 705
   1.504264 1  aa              Rx   d 8 1A 6F 1A 6F 1A 6F 1A 6F   Length = 0 BitCount = 0 ID = 170
   1.504509 1  3f9             Rx   d 8 47 58 11 02 00 00 00 B6   Length = 0 BitCount = 0 ID = 1017
   1.512255 1  aa              Rx   d 8 1A 6F 1A 6F 1A 6F 1A 6F   Length = 0 BitCount = 0 ID = 170
   1.512431 1  ba              Rx   d 4 40 66 00 64   Length = 0 BitCount = 0 ID = 186
   1.512671 1  226             Rx   d 8 80 00 00 00 00 00 00 00   Length = 0 BitCount = 0 ID = 550
   1.520265 1  aa              Rx   d 8 1A 6F 1A 6F 1A 6F 1A 6F   Length = 0 BitCount = 0 ID = 170
   1.520526 1  b4              Rx   d 8 00 00 00 00 00 00 00 BC   Length = 0 BitCount = 0 ID = 180
   1.520752 1  1c4             Rx   d 8 04 82 23 08 48 00 7F 45   Length = 0 BitCount = 0 ID = 452
   1.520995 1  1d0             Rx   d 8 08 E7 09 00 00 00 00 D1   Length = 0 BitCount = 0 ID = 464
   1.521153 1  220             Rx   d 4 00 00 00 26   Length = 0 BitCount = 0 ID = 544
   1.528272 1  aa              Rx   d 8 1A 6F 1A 6F 1A 6F 1A 6F   Length = 0 BitCount = 0 ID = 170
   1.528827 1  3d0             Rx   d 1 00   Length = 0 BitCount = 0 ID = 976
   1.529996 1  2c1             Rx   d 8 08 00 00 FF EA C0 00 7C   Length = 0 BitCount = 0 ID = 705
   1.536273 1  aa              Rx   d 8 1A 6F 1A 6F 1A 6F 1A 6F   Length = 0 BitCount = 0 ID = 170
   1.536452 1  ba              Rx   d 4 40 66 00 64   Length = 0 BitCount = 0 ID = 186
   1.536695 1  226             Rx   d 8 80 00 00 00 00 00 00 00   Length = 0 BitCount = 0 ID = 550
   1.544276 1  aa              Rx   d 8 1A 6F 1A 6F 1A 6F 1A 6F   Length = 0 BitCount = 0 ID = 170
   1.544523 1  b4              Rx   d 8 00 00 00 00 00 00 00 BC   Length = 0 BitCount = 0 ID = 180
   1.544766 1  1c4             Rx   d 8 04 85 23 08 48 00 7F 48   Length = 0 BitCount = 0 ID = 452
   1.544937 1  220             Rx   d 4 00 00 00 26   Length = 0 BitCount = 0 ID = 544
   1.552293 1  aa              Rx   d 8 1A 6F 1A 6F 1A 6F 1A 6F   Length = 0 BitCount = 0 ID = 170
   1.552532 1  1d0             Rx   d 8 08 E6 09 00 00 00 00 D0   Length = 0 BitCount = 0 ID = 464
   1.553539 1  361             Rx   d 8 00 29 00 00 00 00 00 00   Length = 0 BitCount = 0 ID = 865
   1.560279 1  aa              Rx   d 8 1A 6F 1A 6F 1A 6F 1A 6F   Length = 0 BitCount = 0 ID = 170
   1.560457 1  ba              Rx   d 4 40 66 00 64   Length = 0 BitCount = 0 ID = 186
   1.560697 1  226             Rx   d 8 80 00 00 00 00 00 00 00   Length = 0 BitCount = 0 ID = 550
   1.561756 1  2c1             Rx   d 8 08 00 00 FF EC C0 00 7E   Length = 0 BitCount = 0 ID = 705
   1.567872 1  1c4             Rx   d 8 04 86 23 08 48 00 7F 49   Length = 0 BitCount = 0 ID = 452
   1.568285 1  aa              Rx   d 8 1A 6F 1A 6F 1A 6F 1A 6F   Length = 0 BitCount = 0 ID = 170
   1.568532 1  b4              Rx   d 8 00 00 00 00 00 00 00 BC   Length = 0 BitCount = 0 ID = 180
   1.568705 1  220             Rx   d 4 00 00 00 26   Length = 0 BitCount = 0 ID = 544
   1.576287 1  aa              Rx   d 8 1A 6F 1A 6F 1A 6F 1A 6F   Length = 0 BitCount = 0 ID = 170
   1.584267 1  1d0             Rx   d 8 08 E5 09 00 00 00 00 CF   Length = 0 BitCount = 0 ID = 464
   1.584496 1  aa              Rx   d 8 1A 6F 1A 6F 1A 6F 1A 6F   Length = 0 BitCount = 0 ID = 170
   1.584667 1  ba              Rx   d 4 40 66 00 64   Length = 0 BitCount = 0 ID = 186
   1.584911 1  226             Rx   d 8 80 00 00 00 00 00 00 00   Length = 0 BitCount = 0 ID = 550
   1.591468 1  1c4             Rx   d 8 04 85 23 08 48 00 7F 48   Length = 0 BitCount = 0 ID = 452
   1.592310 1  aa              Rx   d 8 1A 6F 1A 6F 1A 6F 1A 6F   Length = 0 BitCount = 0 ID = 170
   1.592552 1  b4              Rx   d 8 00 00 00 00 00 00 00 BC   Length = 0 BitCount = 0 ID = 180
   1.592710 1  220             Rx   d 4 00 00 00 26   Length = 0 BitCount = 0 ID = 544
   1.593502 1  2c1             Rx   d 8 08 00 00 FF ED C0 00 7F   Length = 0 BitCount = 0 ID = 705
   1.600295 1  aa              Rx   d 8 1A 6F 1A 6F 1A 6F 1A 6F   Length = 0 BitCount = 0 ID = 170
   1.602958 1  610             Rx   d 8 20 00 00 64 C0 00 00 00   Length = 0 BitCount = 0 ID = 1552
   1.608305 1  aa              Rx   d 8 1A 6F 1A 6F 1A 6F 1A 6F   Length = 0 BitCount = 0 ID = 170
   1.608723 1  226             Rx   d 8 80 00 00 00 00 00 00 00   Length = 0 BitCount = 0 ID = 550
   1.608466 1  ba              Rx   d 4 40 66 00 64   Length = 0 BitCount = 0 ID = 186
   1.613321 1  611             Rx   d 8 21 00 00 00 00 02 6D C3   Length = 0 BitCount = 0 ID = 1553
   1.615004 1  1c4             Rx   d 8 04 87 23 08 48 00 7F 4A   Length = 0 BitCount = 0 ID = 452
   1.616053 1  1d0             Rx   d 8 08 E7 09 00 00 00 00 D1   Length = 0 BitCount = 0 ID = 464
   1.616367 1  aa              Rx   d 8 1A 6F 1A 6F 1A 6F 1A 6F   Length = 0 BitCount = 0 ID = 170
   1.616606 1  b4              Rx   d 8 00 00 00 00 00 00 00 BC   Length = 0 BitCount = 0 ID = 180
   1.616779 1  220             Rx   d 4 00 00 00 26   Length = 0 BitCount = 0 ID = 544
   1.618102 1  361             Rx   d 8 00 29 00 00 00 00 00 00   Length = 0 BitCount = 0 ID = 865
   1.624315 1  aa              Rx   d 8 1A 6F 1A 6F 1A 6F 1A 6F   Length = 0 BitCount = 0 ID = 170
   1.625242 1  2c1             Rx   d 8 08 00 00 FF EE C0 00 80   Length = 0 BitCount = 0 ID = 705
   1.632307 1  aa              Rx   d 8 1A 6F 1A 6F 1A 6F 1A 6F   Length = 0 BitCount = 0 ID = 170
   1.632486 1  ba              Rx   d 4 40 66 00 64   Length = 0 BitCount = 0 ID = 186
   1.632728 1  226             Rx   d 8 80 00 00 00 00 00 00 00   Length = 0 BitCount = 0 ID = 550
   1.635341 1  354             Rx   d 1 22   Length = 0 BitCount = 0 ID = 852
   1.638551 1  1c4             Rx   d 8 04 86 23 08 48 00 7F 49   Length = 0 BitCount = 0 ID = 452
   1.640320 1  aa              Rx   d 8 1A 6F 1A 6F 1A 6F 1A 6F   Length = 0 BitCount = 0 ID = 170
   1.640563 1  b4              Rx   d 8 00 00 00 00 00 00 00 BC   Length = 0 BitCount = 0 ID = 180
   1.640736 1  220             Rx   d 4 00 00 00 26   Length = 0 BitCount = 0 ID = 544
   1.641284 1  4dd             Rx   d 8 1E 00 00 02 00 00 00 00   Length = 0 BitCount = 0 ID = 1245
   1.647777 1  1d0             Rx   d 8 08 E7 09 00 00 00 00 D1   Length = 0 BitCount = 0 ID = 464
   1.648328 1  aa              Rx   d 8 1A 6F 1A 6F 1A 6F 1A 6F   Length = 0 BitCount = 0 ID = 170
   1.656330 1  aa              Rx   d 8 1A 6F 1A 6F 1A 6F 1A 6F   Length = 0 BitCount = 0 ID = 170
   1.656486 1  ba              Rx   d 4 40 66 00 64   Length = 0 BitCount = 0 ID = 186
   1.656743 1  226             Rx   d 8 80 00 00 00 00 00 00 00   Length = 0 BitCount = 0 ID = 550
   1.657018 1  2c1             Rx   d 8 08 00 00 FF F0 C0 00 82   Length = 0 BitCount = 0 ID = 705
   1.662109 1  1c4             Rx   d 8 04 83 23 08 48 00 7F 46   Length = 0 BitCount = 0 ID = 452
   1.664323 1  aa              Rx   d 8 1A 6F 1A 6F 1A 6F 1A 6F   Length = 0 BitCount = 0 ID = 170
   1.664570 1  b4              Rx   d 8 00 00 00 00 00 00 00 BC   Length = 0 BitCount = 0 ID = 180
   1.664744 1  220             Rx   d 4 00 00 00 26   Length = 0 BitCount = 0 ID = 544
   1.672324 1  aa              Rx   d 8 1A 6F 1A 6F 1A 6F 1A 6F   Length = 0 BitCount = 0 ID = 170
   1.679550 1  1d0             Rx   d 8 08 EA 09 00 00 00 00 D4   Length = 0 BitCount = 0 ID = 464
   1.680346 1  aa              Rx   d 8 1A 6F 1A 6F 1A 6F 1A 6F   Length = 0 BitCount = 0 ID = 170
   1.680502 1  ba              Rx   d 4 40 66 00 64   Length = 0 BitCount = 0 ID = 186
   1.680758 1  226             Rx   d 8 80 00 00 00 00 00 00 00   Length = 0 BitCount = 0 ID = 550
   1.682633 1  361             Rx   d 8 00 29 00 00 00 00 00 00   Length = 0 BitCount = 0 ID = 865
   1.685688 1  1c4             Rx   d 8 04 81 23 08 48 00 7F 44   Length = 0 BitCount = 0 ID = 452
   1.688332 1  aa              Rx   d 8 1A 6F 1A 6F 1A 6F 1A 6F   Length = 0 BitCount = 0 ID = 170
   1.688593 1  b4              Rx   d 8 00 00 00 00 00 00 00 BC   Length = 0 BitCount = 0 ID = 180
   1.688750 1  220             Rx   d 4 00 00 00 26   Length = 0 BitCount = 0 ID = 544
   1.688993 1  2c1             Rx   d 8 08 00 00 FF E5 C0 00 77   Length = 0 BitCount = 0 ID = 705
   1.691842 1  3bc             Rx   d 8 00 20 00 00 00 00 00 00   Length = 0 BitCount = 0 ID = 956
   1.696350 1  aa              Rx   d 8 1A 6F 1A 6F 1A 6F 1A 6F   Length = 0 BitCount = 0 ID = 170
   1.704355 1  aa              Rx   d 8 1A 6F 1A 6F 1A 6F 1A 6F   Length = 0 BitCount = 0 ID = 170
   1.704510 1  ba              Rx   d 4 40 66 00 64   Length = 0 BitCount = 0 ID = 186
   1.704769 1  226             Rx   d 8 80 00 00 00 00 00 00 00   Length = 0 BitCount = 0 ID = 550
   1.709249 1  1c4             Rx   d 8 04 81 23 08 48 00 7F 44   Length = 0 BitCount = 0 ID = 452
   1.711309 1  1d0             Rx   d 8 08 E6 09 00 00 00 00 D0   Length = 0 BitCount = 0 ID = 464
   1.712346 1  aa              Rx   d 8 1A 6F 1A 6F 1A 6F 1A 6F   Length = 0 BitCount = 0 ID = 170
   1.712588 1  b4              Rx   d 8 00 00 00 00 00 00 00 BC   Length = 0 BitCount = 0 ID = 180
   1.712759 1  220             Rx   d 4 00 00 00 26   Length = 0 BitCount = 0 ID = 544
   1.713019 1  3b7             Rx   d 8 00 00 00 00 00 00 00 00   Length = 0 BitCount = 0 ID = 951
   1.720349 1  aa              Rx   d 8 1A 6F 1A 6F 1A 6F 1A 6F   Length = 0 BitCount = 0 ID = 170
   1.720588 1  2c1             Rx   d 8 08 00 00 FF E3 C0 00 75   Length = 0 BitCount = 0 ID = 705
   1.728361 1  aa              Rx   d 8 1A 6F 1A 6F 1A 6F 1A 6F   Length = 0 BitCount = 0 ID = 170
   1.728517 1  ba              Rx   d 4 40 66 00 64   Length = 0 BitCount = 0 ID = 186
   1.728759 1  226             Rx   d 8 80 00 00 00 00 00 00 00   Length = 0 BitCount = 0 ID = 550
   1.732809 1  1c4             Rx   d 8 04 81 23 08 48 00 7F 44   Length = 0 BitCount = 0 ID = 452
   1.736364 1  aa              Rx   d 8 1A 6F 1A 6F 1A 6F 1A 6F   Length = 0 BitCount = 0 ID = 170
   1.736606 1  b4              Rx   d 8 00 00 00 00 00 00 00 BC   Length = 0 BitCount = 0 ID = 180
   1.736779 1  220             Rx   d 4 00 00 00 26   Length = 0 BitCount = 0 ID = 544
   1.743053 1  1d0             Rx   d 8 08 E5 09 00 00 00 00 CF   Length = 0 BitCount = 0 ID = 464
   1.744370 1  aa              Rx   d 8 1A 6F 1A 6F 1A 6F 1A 6F   Length = 0 BitCount = 0 ID = 170
   1.747160 1  361             Rx   d 8 00 29 00 00 00 00 00 00   Length = 0 BitCount = 0 ID = 865
   1.752272 1  2c1             Rx   d 8 08 00 00 FF E9 C0 00 7B   Length = 0 BitCount = 0 ID = 705
   1.752496 1  aa              Rx   d 8 1A 6F 1A 6F 1A 6F 1A 6F   Length = 0 BitCount = 0 ID = 170
   1.752668 1  ba              Rx   d 4 40 66 00 64   Length = 0 BitCount = 0 ID = 186
   1.752910 1  226             Rx   d 8 80 00 00 00 00 00 00 00   Length = 0 BitCount = 0 ID = 550
   1.754307 1  3f9             Rx   d 8 47 58 11 02 00 00 00 B6   Length = 0 BitCount = 0 ID = 1017
   1.756352 1  1c4             Rx   d 8 04 7F 23 08 48 00 7F 42   Length = 0 BitCount = 0 ID = 452
   1.760372 1  aa              Rx   d 8 1A 6F 1A 6F 1A 6F 1A 6F   Length = 0 BitCount = 0 ID = 170
   1.760614 1  b4              Rx   d 8 00 00 00 00 00 00 00 BC   Length = 0 BitCount = 0 ID = 180
   1.760789 1  220             Rx   d 4 00 00 00 26   Length = 0 BitCount = 0 ID = 544
   1.768375 1  aa              Rx   d 8 1A 6F 1A 6F 1A 6F 1A 6F   Length = 0 BitCount = 0 ID = 170
   1.774806 1  1d0             Rx   d 8 08 E1 09 00 00 00 00 CB   Length = 0 BitCount = 0 ID = 464
   1.776390 1  aa              Rx   d 8 1A 6F 1A 6F 1A 6F 1A 6F   Length = 0 BitCount = 0 ID = 170
   1.776547 1  ba              Rx   d 4 40 66 00 64   Length = 0 BitCount = 0 ID = 186
   1.776787 1  226             Rx   d 8 80 00 00 00 00 00 00 00   Length = 0 BitCount = 0 ID = 550
   1.778764 1  3d0             Rx   d 1 00   Length = 0 BitCount = 0 ID = 976
   1.779917 1  1c4             Rx   d 8 04 82 23 08 48 00 7F 45   Length = 0 BitCount = 0 ID = 452
   1.783024 1  620             Rx   d 8 10 00 00 00 00 00 00 10   Length = 0 BitCount = 0 ID = 1568
   1.784038 1  2c1             Rx   d 8 08 00 00 FF E8 C0 00 7A   Length = 0 BitCount = 0 ID = 705
   1.784405 1  aa              Rx   d 8 1A 6F 1A 6F 1A 6F 1A 6F   Length = 0 BitCount = 0 ID = 170
   1.784660 1  b4              Rx   d 8 00 00 00 00 00 00 00 BC   Length = 0 BitCount = 0 ID = 180
   1.784818 1  220             Rx   d 4 00 00 00 26   Length = 0 BitCount = 0 ID = 544
   1.792415 1  aa              Rx   d 8 1A 6F 1A 6F 1A 6F 1A 6F   Length = 0 BitCount = 0 ID = 170
   1.800405 1  aa              Rx   d 8 1A 6F 1A 6F 1A 6F 1A 6F   Length = 0 BitCount = 0 ID = 170
   1.800577 1  ba              Rx   d 4 40 66 00 64   Length = 0 BitCount = 0 ID = 186
   1.800818 1  226             Rx   d 8 80 00 00 00 00 00 00 00   Length = 0 BitCount = 0 ID = 550
   1.803493 1  1c4             Rx   d 8 04 86 23 08 48 00 7F 49   Length = 0 BitCount = 0 ID = 452
   1.806550 1  1d0             Rx   d 8 08 E1 09 00 00 00 00 CB   Length = 0 BitCount = 0 ID = 464
   1.808408 1  aa              Rx   d 8 1A 6F 1A 6F 1A 6F 1A 6F   Length = 0 BitCount = 0 ID = 170
   1.808667 1  b4              Rx   d 8 00 00 00 00 00 00 00 BC   Length = 0 BitCount = 0 ID = 180
   1.808838 1  220             Rx   d 4 00 00 00 26   Length = 0 BitCount = 0 ID = 544
   1.810541 1  3d3             Rx   d 2 01 4B   Length = 0 BitCount = 0 ID = 979
   1.811676 1  361             Rx   d 8 00 29 00 00 00 00 00 00   Length = 0 BitCount = 0 ID = 865
   1.815778 1  2c1             Rx   d 8 08 00 00 FF EB C0 00 7D   Length = 0 BitCount = 0 ID = 705
   1.816419 1  aa              Rx   d 8 1A 6F 1A 6F 1A 6F 1A 6F   Length = 0 BitCount = 0 ID = 170
   1.824413 1  aa              Rx   d 8 1A 6F 1A 6F 1A 6F 1A 6F   Length = 0 BitCount = 0 ID = 170
   1.824586 1  ba              Rx   d 4 40 66 00 64   Length = 0 BitCount = 0 ID = 186
   1.824828 1  226             Rx   d 8 80 00 00 00 00 00 00 00   Length = 0 BitCount = 0 ID = 550
   1.827044 1  1c4             Rx   d 8 04 89 23 08 48 00 7F 4C   Length = 0 BitCount = 0 ID = 452
   1.832416 1  aa              Rx   d 8 1A 6F 1A 6F 1A 6F 1A 6F   Length = 0 BitCount = 0 ID = 170
   1.832658 1  b4              Rx   d 8 00 00 00 00 00 00 00 BC   Length = 0 BitCount = 0 ID = 180
   1.832833 1  220             Rx   d 4 00 00 00 26   Length = 0 BitCount = 0 ID = 544
   1.835107 1  354             Rx   d 1 25   Length = 0 BitCount = 0 ID = 852
   1.838293 1  1d0             Rx   d 8 08 E4 09 00 00 00 00 CE   Length = 0 BitCount = 0 ID = 464
   1.840410 1  aa              Rx   d 8 1A 6F 1A 6F 1A 6F 1A 6F   Length = 0 BitCount = 0 ID = 170
   1.847527 1  2c1             Rx   d 8 08 00 00 FF F3 C0 00 85   Length = 0 BitCount = 0 ID = 705
   1.848419 1  aa              Rx   d 8 1A 6F 1A 6F 1A 6F 1A 6F   Length = 0 BitCount = 0 ID = 170
   1.848587 1  ba              Rx   d 4 40 66 00 64   Length = 0 BitCount = 0 ID = 186
   1.848829 1  226             Rx   d 8 80 00 00 00 00 00 00 00   Length = 0 BitCount = 0 ID = 550
   1.850589 1  1c4             Rx   d 8 04 83 23 08 48 00 7F 46   Length = 0 BitCount = 0 ID = 452
   1.856404 1  aa              Rx   d 8 1A 6F 1A 6F 1A 6F 1A 6F   Length = 0 BitCount = 0 ID = 170
   1.856664 1  b4              Rx   d 8 00 00 00 00 00 00 00 BC   Length = 0 BitCount = 0 ID = 180
   1.856822 1  220             Rx   d 4 00 00 00 26   Length = 0 BitCount = 0 ID = 544
   1.864424 1  aa              Rx   d 8 1A 6F 1A 6F 1A 6F 1A 6F   Length = 0 BitCount = 0 ID = 170
   1.870084 1  1d0             Rx   d 8 08 E7 09 00 00 00 00 D1   Length = 0 BitCount = 0 ID = 464
   1.872423 1  aa              Rx   d 8 1A 6F 1A 6F 1A 6F 1A 6F   Length = 0 BitCount = 0 ID = 170
   1.872596 1  ba              Rx   d 4 40 66 00 64   Length = 0 BitCount = 0 ID = 186
   1.872856 1  226             Rx   d 8 80 00 00 00 00 00 00 00   Length = 0 BitCount = 0 ID = 550
   1.873095 1  442             Rx   d 8 42 04 00 00 02 00 00 00   Length = 0 BitCount = 0 ID = 1090
   1.874161 1  1c4             Rx   d 8 04 88 23 08 48 00 7F 4B   Length = 0 BitCount = 0 ID = 452
   1.876209 1  361             Rx   d 8 00 29 00 00 00 00 00 00   Length = 0 BitCount = 0 ID = 865
   1.879264 1  2c1             Rx   d 8 08 00 00 FF F2 C0 00 84   Length = 0 BitCount = 0 ID = 705
   1.880420 1  aa              Rx   d 8 1A 6F 1A 6F 1A 6F 1A 6F   Length = 0 BitCount = 0 ID = 170
   1.880678 1  b4              Rx   d 8 00 00 00 00 00 00 00 BC   Length = 0 BitCount = 0 ID = 180
   1.880849 1  220             Rx   d 4 00 00 00 26   Length = 0 BitCount = 0 ID = 544
   1.888414 1  aa              Rx   d 8 1A 6F 1A 6F 1A 6F 1A 6F   Length = 0 BitCount = 0 ID = 170
   1.893081 1  622             Rx   d 8 12 00 00 00 00 00 00 00   Length = 0 BitCount = 0 ID = 1570
   1.896423 1  aa              Rx   d 8 1A 6F 1A 6F 1A 6F 1A 6F   Length = 0 BitCount = 0 ID = 170
   1.896597 1  ba              Rx   d 4 40 66 00 64   Length = 0 BitCount = 0 ID = 186
   1.896857 1  226             Rx   d 8 80 00 00 00 00 00 00 00   Length = 0 BitCount = 0 ID = 550
   1.897718 1  1c4             Rx   d 8 04 88 23 08 48 00 7F 4B   Length = 0 BitCount = 0 ID = 452
   1.900688 1  4ac             Rx   d 8 98 00 00 00 5A 00 03 80   Length = 0 BitCount = 0 ID = 1196
   1.901806 1  1d0             Rx   d 8 08 E9 09 00 00 00 00 D3   Length = 0 BitCount = 0 ID = 464
   1.904435 1  aa              Rx   d 8 1A 6F 1A 6F 1A 6F 1A 6F   Length = 0 BitCount = 0 ID = 170
   1.904694 1  b4              Rx   d 8 00 00 00 00 00 00 00 BC   Length = 0 BitCount = 0 ID = 180
   1.904869 1  220             Rx   d 4 00 00 00 26   Length = 0 BitCount = 0 ID = 544
   1.911061 1  2c1             Rx   d 8 08 00 00 FF F0 C0 00 82   Length = 0 BitCount = 0 ID = 705
   1.912439 1  aa              Rx   d 8 1A 6F 1A 6F 1A 6F 1A 6F   Length = 0 BitCount = 0 ID = 170
   1.920431 1  aa              Rx   d 8 1A 6F 1A 6F 1A 6F 1A 6F   Length = 0 BitCount = 0 ID = 170
   1.920604 1  ba              Rx   d 4 40 66 00 64   Length = 0 BitCount = 0 ID = 186
   1.920864 1  226             Rx   d 8 80 00 00 00 00 00 00 00   Length = 0 BitCount = 0 ID = 550
   1.921278 1  1c4             Rx   d 8 04 86 23 08 48 00 7F 49   Length = 0 BitCount = 0 ID = 452
   1.928424 1  aa              Rx   d 8 1A 6F 1A 6F 1A 6F 1A 6F   Length = 0 BitCount = 0 ID = 170
   1.928700 1  b4              Rx   d 8 00 00 00 00 00 00 00 BC   Length = 0 BitCount = 0 ID = 180
   1.928856 1  220             Rx   d 4 00 00 00 26   Length = 0 BitCount = 0 ID = 544
   1.933561 1  1d0             Rx   d 8 08 ED 09 00 00 00 00 D7   Length = 0 BitCount = 0 ID = 464
   1.936440 1  aa              Rx   d 8 1A 6F 1A 6F 1A 6F 1A 6F   Length = 0 BitCount = 0 ID = 170
   1.940731 1  361             Rx   d 8 00 29 00 00 00 00 00 00   Length = 0 BitCount = 0 ID = 865
   1.942777 1  2c1             Rx   d 8 08 00 00 FF F3 C0 00 85   Length = 0 BitCount = 0 ID = 705
   1.944448 1  aa              Rx   d 8 1A 6F 1A 6F 1A 6F 1A 6F   Length = 0 BitCount = 0 ID = 170
   1.944623 1  ba              Rx   d 4 40 66 00 64   Length = 0 BitCount = 0 ID = 186
   1.944844 1  1c4             Rx   d 8 04 84 23 08 48 00 7F 47   Length = 0 BitCount = 0 ID = 452
   1.945104 1  226             Rx   d 8 80 00 00 00 00 00 00 00   Length = 0 BitCount = 0 ID = 550
   1.952638 1  aa              Rx   d 8 1A 6F 1A 6F 1A 6F 1A 6F   Length = 0 BitCount = 0 ID = 170
   1.952879 1  b4              Rx   d 8 00 00 00 00 00 00 00 BC   Length = 0 BitCount = 0 ID = 180
   1.953055 1  220             Rx   d 4 00 00 00 26   Length = 0 BitCount = 0 ID = 544
   1.960639 1  aa              Rx   d 8 1A 6F 1A 6F 1A 6F 1A 6F   Length = 0 BitCount = 0 ID = 170
   1.962167 1  3bb             Rx   d 4 00 00 A8 00   Length = 0 BitCount = 0 ID = 955
   1.965307 1  1d0             Rx   d 8 08 ED 09 00 00 00 00 D7   Length = 0 BitCount = 0 ID = 464
   1.968379 1  1c4             Rx   d 8 04 84 23 08 48 00 7F 47   Length = 0 BitCount = 0 ID = 452
   1.968644 1  aa              Rx   d 8 1A 6F 1A 6F 1A 6F 1A 6F   Length = 0 BitCount = 0 ID = 170
   1.968800 1  ba              Rx   d 4 40 66 00 64   Length = 0 BitCount = 0 ID = 186
   1.969057 1  226             Rx   d 8 80 00 00 00 00 00 00 00   Length = 0 BitCount = 0 ID = 550
   1.974554 1  2c1             Rx   d 8 08 00 00 FF EB C0 00 7D   Length = 0 BitCount = 0 ID = 705
   1.976635 1  aa              Rx   d 8 1A 6F 1A 6F 1A 6F 1A 6F   Length = 0 BitCount = 0 ID = 170
   1.976891 1  b4              Rx   d 8 00 00 00 00 00 00 00 BC   Length = 0 BitCount = 0 ID = 180
   1.977048 1  220             Rx   d 4 00 00 00 26   Length = 0 BitCount = 0 ID = 544
   1.984646 1  aa              Rx   d 8 1A 6F 1A 6F 1A 6F 1A 6F   Length = 0 BitCount = 0 ID = 170
   1.991938 1  1c4             Rx   d 8 04 81 23 08 48 00 7F 44   Length = 0 BitCount = 0 ID = 452
   1.992644 1  aa              Rx   d 8 1A 6F 1A 6F 1A 6F 1A 6F   Length = 0 BitCount = 0 ID = 170
   1.992819 1  ba              Rx   d 4 40 66 00 64   Length = 0 BitCount = 0 ID = 186
   1.993063 1  226             Rx   d 8 80 00 00 00 00 00 00 00   Length = 0 BitCount = 0 ID = 550
   1.997078 1  1d0             Rx   d 8 08 EA 09 00 00 00 00 D4   Length = 0 BitCount = 0 ID = 464
   2.000650 1  aa              Rx   d 8 1A 6F 1A 6F 1A 6F 1A 6F   Length = 0 BitCount = 0 ID = 170
   2.000894 1  b4              Rx   d 8 00 00 00 00 00 00 00 BC   Length = 0 BitCount = 0 ID = 180
   2.001064 1  220             Rx   d 4 00 00 00 26   Length = 0 BitCount = 0 ID = 544
   2.001308 1  3b7             Rx   d 8 00 00 00 00 00 00 00 00   Length = 0 BitCount = 0 ID = 951
   2.004245 1  3f9             Rx   d 8 47 58 11 02 00 00 00 B6   Length = 0 BitCount = 0 ID = 1017
   2.005278 1  361             Rx   d 8 00 29 00 00 00 00 00 00   Length = 0 BitCount = 0 ID = 865
   2.006293 1  2c1             Rx   d 8 08 00 00 FF EE C0 00 80   Length = 0 BitCount = 0 ID = 705
   2.008647 1  aa              Rx   d 8 1A 6F 1A 6F 1A 6F 1A 6F   Length = 0 BitCount = 0 ID = 170
   2.015526 1  1c4             Rx   d 8 04 83 23 08 48 00 7F 46   Length = 0 BitCount = 0 ID = 452
   2.016644 1  aa              Rx   d 8 1A 6F 1A 6F 1A 6F 1A 6F   Length = 0 BitCount = 0 ID = 170
   2.016818 1  ba              Rx   d 4 40 66 00 64   Length = 0 BitCount = 0 ID = 186
   2.017060 1  226             Rx   d 8 80 00 00 00 00 00 00 00   Length = 0 BitCount = 0 ID = 550
   2.024650 1  aa              Rx   d 8 1A 6F 1A 6F 1A 6F 1A 6F   Length = 0 BitCount = 0 ID = 170
   2.024908 1  b4              Rx   d 8 00 00 00 00 00 00 00 BC   Length = 0 BitCount = 0 ID = 180
   2.025080 1  220             Rx   d 4 00 00 00 26   Length = 0 BitCount = 0 ID = 544
   2.028826 1  1d0             Rx   d 8 08 E9 09 00 00 00 00 D3   Length = 0 BitCount = 0 ID = 464
   2.028948 1  3d0             Rx   d 1 00   Length = 0 BitCount = 0 ID = 976
   2.032664 1  aa              Rx   d 8 1A 6F 1A 6F 1A 6F 1A 6F   Length = 0 BitCount = 0 ID = 170
   2.034829 1  354             Rx   d 1 25   Length = 0 BitCount = 0 ID = 852
   2.038048 1  2c1             Rx   d 8 08 00 00 FF F6 C0 00 88   Length = 0 BitCount = 0 ID = 705
   2.039063 1  1c4             Rx   d 8 04 85 23 08 48 00 7F 48   Length = 0 BitCount = 0 ID = 452
   2.040664 1  aa              Rx   d 8 1A 6F 1A 6F 1A 6F 1A 6F   Length = 0 BitCount = 0 ID = 170
   2.040835 1  ba              Rx   d 4 40 66 00 64   Length = 0 BitCount = 0 ID = 186
   2.041078 1  226             Rx   d 8 80 00 00 00 00 00 00 00   Length = 0 BitCount = 0 ID = 550
   2.041321 1  4c3             Rx   d 8 04 00 00 02 00 00 00 00   Length = 0 BitCount = 0 ID = 1219
   2.048665 1  aa              Rx   d 8 1A 6F 1A 6F 1A 6F 1A 6F   Length = 0 BitCount = 0 ID = 170
   2.048926 1  b4              Rx   d 8 00 00 00 00 00 00 00 BC   Length = 0 BitCount = 0 ID = 180
   2.049084 1  220             Rx   d 4 00 00 00 26   Length = 0 BitCount = 0 ID = 544
   2.056667 1  aa              Rx   d 8 1A 6F 1A 6F 1A 6F 1A 6F   Length = 0 BitCount = 0 ID = 170
   2.060582 1  1d0             Rx   d 8 08 E7 09 00 00 00 00 D1   Length = 0 BitCount = 0 ID = 464
   2.062626 1  1c4             Rx   d 8 04 84 23 08 48 00 7F 47   Length = 0 BitCount = 0 ID = 452
   2.064687 1  aa              Rx   d 8 1A 6F 1A 6F 1A 6F 1A 6F   Length = 0 BitCount = 0 ID = 170
   2.064861 1  ba              Rx   d 4 40 66 00 64   Length = 0 BitCount = 0 ID = 186
   2.065105 1  226             Rx   d 8 80 00 00 00 00 00 00 00   Length = 0 BitCount = 0 ID = 550
   2.069816 1  2c1             Rx   d 8 08 00 00 FF F6 C0 00 88   Length = 0 BitCount = 0 ID = 705
   2.070057 1  361             Rx   d 8 00 29 00 00 00 00 00 00   Length = 0 BitCount = 0 ID = 865
   2.072685 1  aa              Rx   d 8 1A 6F 1A 6F 1A 6F 1A 6F   Length = 0 BitCount = 0 ID = 170
   2.072941 1  b4              Rx   d 8 00 00 00 00 00 00 00 BC   Length = 0 BitCount = 0 ID = 180
   2.073114 1  220             Rx   d 4 00 00 00 26   Length = 0 BitCount = 0 ID = 544
   2.080695 1  aa              Rx   d 8 1A 6F 1A 6F 1A 6F 1A 6F   Length = 0 BitCount = 0 ID = 170
   2.083081 1  620             Rx   d 8 10 00 00 00 00 00 00 10   Length = 0 BitCount = 0 ID = 1568
   2.086182 1  1c4             Rx   d 8 04 84 23 08 48 00 7F 47   Length = 0 BitCount = 0 ID = 452
   2.088692 1  aa              Rx   d 8 1A 6F 1A 6F 1A 6F 1A 6F   Length = 0 BitCount = 0 ID = 170
   2.088866 1  ba              Rx   d 4 40 66 00 64   Length = 0 BitCount = 0 ID = 186
   2.089110 1  226             Rx   d 8 80 00 00 00 00 00 00 00   Length = 0 BitCount = 0 ID = 550
   2.092336 1  1d0             Rx   d 8 08 E8 09 00 00 00 00 D2   Length = 0 BitCount = 0 ID = 464
   2.096699 1  aa              Rx   d 8 1A 6F 1A 6F 1A 6F 1A 6F   Length = 0 BitCount = 0 ID = 170
   2.096941 1  b4              Rx   d 8 00 00 00 00 00 00 00 BC   Length = 0 BitCount = 0 ID = 180
   2.097116 1  220             Rx   d 4 00 00 00 26   Length = 0 BitCount = 0 ID = 544
   2.101562 1  2c1             Rx   d 8 08 00 00 FF F7 C0 00 89   Length = 0 BitCount = 0 ID = 705
   2.103088 1  610             Rx   d 8 20 00 00 64 C0 00 00 00   Length = 0 BitCount = 0 ID = 1552
   2.104707 1  aa              Rx   d 8 1A 6F 1A 6F 1A 6F 1A 6F   Length = 0 BitCount = 0 ID = 170
   2.109767 1  1c4             Rx   d 8 04 80 23 08 48 00 7F 43   Length = 0 BitCount = 0 ID = 452
   2.112702 1  aa              Rx   d 8 1A 6F 1A 6F 1A 6F 1A 6F   Length = 0 BitCount = 0 ID = 170
   2.112876 1  ba              Rx   d 4 40 66 00 64   Length = 0 BitCount = 0 ID = 186
   2.113120 1  226             Rx   d 8 80 00 00 00 00 00 00 00   Length = 0 BitCount = 0 ID = 550
   2.120694 1  aa              Rx   d 8 1A 6F 1A 6F 1A 6F 1A 6F   Length = 0 BitCount = 0 ID = 170
   2.120954 1  b4              Rx   d 8 00 00 00 00 00 00 00 BC   Length = 0 BitCount = 0 ID = 180
   2.121126 1  220             Rx   d 4 00 00 00 26   Length = 0 BitCount = 0 ID = 544
   2.124125 1  1d0             Rx   d 8 08 E7 09 00 00 00 00 D1   Length = 0 BitCount = 0 ID = 464
   2.128709 1  aa              Rx   d 8 1A 6F 1A 6F 1A 6F 1A 6F   Length = 0 BitCount = 0 ID = 170
   2.133307 1  1c4             Rx   d 8 04 7F 23 08 48 00 7F 42   Length = 0 BitCount = 0 ID = 452
   2.133536 1  2c1             Rx   d 8 08 00 00 FF F4 C0 00 86   Length = 0 BitCount = 0 ID = 705
   2.134357 1  361             Rx   d 8 00 29 00 00 00 00 00 00   Length = 0 BitCount = 0 ID = 865
   2.136713 1  aa              Rx   d 8 1A 6F 1A 6F 1A 6F 1A 6F   Length = 0 BitCount = 0 ID = 170
   2.136869 1  ba              Rx   d 4 40 66 00 64   Length = 0 BitCount = 0 ID = 186
   2.137125 1  226             Rx   d 8 80 00 00 00 00 00 00 00   Length = 0 BitCount = 0 ID = 550
   2.144711 1  aa              Rx   d 8 1A 6F 1A 6F 1A 6F 1A 6F   Length = 0 BitCount = 0 ID = 170
   2.144971 1  b4              Rx   d 8 00 00 00 00 00 00 00 BC   Length = 0 BitCount = 0 ID = 180
   2.145127 1  220             Rx   d 4 00 00 00 26   Length = 0 BitCount = 0 ID = 544
   2.145614 1  4c1             Rx   d 8 01 00 00 03 00 00 00 00   Length = 0 BitCount = 0 ID = 1217
   2.152714 1  aa              Rx   d 8 1A 6F 1A 6F 1A 6F 1A 6F   Length = 0 BitCount = 0 ID = 170
   2.155837 1  1d0             Rx   d 8 08 E5 09 00 00 00 00 CF   Length = 0 BitCount = 0 ID = 464
   2.156868 1  1c4             Rx   d 8 04 80 23 08 48 00 7F 43   Length = 0 BitCount = 0 ID = 452
   2.160714 1  aa              Rx   d 8 1A 6F 1A 6F 1A 6F 1A 6F   Length = 0 BitCount = 0 ID = 170
   2.160888 1  ba              Rx   d 4 40 66 00 64   Length = 0 BitCount = 0 ID = 186
   2.161132 1  226             Rx   d 8 80 00 00 00 00 00 00 00   Length = 0 BitCount = 0 ID = 550
   2.165069 1  2c1             Rx   d 8 08 00 00 FF F1 C0 00 83   Length = 0 BitCount = 0 ID = 705
   2.168734 1  aa              Rx   d 8 1A 6F 1A 6F 1A 6F 1A 6F   Length = 0 BitCount = 0 ID = 170
   2.168977 1  b4              Rx   d 8 00 00 00 00 00 00 00 BC   Length = 0 BitCount = 0 ID = 180
   2.169145 1  220             Rx   d 4 00 00 00 26   Length = 0 BitCount = 0 ID = 544
   2.176726 1  aa              Rx   d 8 1A 6F 1A 6F 1A 6F 1A 6F   Length = 0 BitCount = 0 ID = 170
   2.180404 1  1c4             Rx   d 8 04 85 23 08 48 00 7F 48   Length = 0 BitCount = 0 ID = 452
   2.184733 1  aa              Rx   d 8 1A 6F 1A 6F 1A 6F 1A 6F   Length = 0 BitCount = 0 ID = 170
   2.184890 1  ba              Rx   d 4 40 66 00 64   Length = 0 BitCount = 0 ID = 186
   2.185152 1  226             Rx   d 8 80 00 00 00 00 00 00 00   Length = 0 BitCount = 0 ID = 550
   2.187609 1  1d0             Rx   d 8 08 E2 09 00 00 00 00 CC   Length = 0 BitCount = 0 ID = 464
   2.192739 1  aa              Rx   d 8 1A 6F 1A 6F 1A 6F 1A 6F   Length = 0 BitCount = 0 ID = 170
   2.192983 1  b4              Rx   d 8 00 00 00 00 00 00 00 BC   Length = 0 BitCount = 0 ID = 180
   2.193158 1  220             Rx   d 4 00 00 00 26   Length = 0 BitCount = 0 ID = 544
   2.196811 1  2c1             Rx   d 8 08 00 00 FF F5 C0 00 87   Length = 0 BitCount = 0 ID = 705
   2.198855 1  361             Rx   d 8 00 29 00 00 00 00 00 00   Length = 0 BitCount = 0 ID = 865
   2.200731 1  aa              Rx   d 8 1A 6F 1A 6F 1A 6F 1A 6F   Length = 0 BitCount = 0 ID = 170
   2.204010 1  1c4             Rx   d 8 04 88 23 08 48 00 7F 4B   Length = 0 BitCount = 0 ID = 452
   2.208731 1  aa              Rx   d 8 1A 6F 1A 6F 1A 6F 1A 6F   Length = 0 BitCount = 0 ID = 170
   2.208902 1  ba              Rx   d 4 40 66 00 64   Length = 0 BitCount = 0 ID = 186
   2.209146 1  226             Rx   d 8 80 00 00 00 00 00 00 00   Length = 0 BitCount = 0 ID = 550
   2.216739 1  aa              Rx   d 8 1A 6F 1A 6F 1A 6F 1A 6F   Length = 0 BitCount = 0 ID = 170
   2.216982 1  b4              Rx   d 8 00 00 00 00 00 00 00 BC   Length = 0 BitCount = 0 ID = 180
   2.217155 1  220             Rx   d 4 00 00 00 26   Length = 0 BitCount = 0 ID = 544
   2.219354 1  1d0             Rx   d 8 08 E6 09 00 00 00 00 D0   Length = 0 BitCount = 0 ID = 464
   2.224738 1  aa              Rx   d 8 1A 6F 1A 6F 1A 6F 1A 6F   Length = 0 BitCount = 0 ID = 170
   2.227549 1  1c4             Rx   d 8 04 8B 23 08 48 00 7F 4E   Length = 0 BitCount = 0 ID = 452
   2.228599 1  2c1             Rx   d 8 08 00 00 FF F6 C0 00 88   Length = 0 BitCount = 0 ID = 705
   2.232738 1  aa              Rx   d 8 1A 6F 1A 6F 1A 6F 1A 6F   Length = 0 BitCount = 0 ID = 170
   2.232912 1  ba              Rx   d 4 40 66 00 64   Length = 0 BitCount = 0 ID = 186
   2.233167 1  226             Rx   d 8 80 00 00 00 00 00 00 00   Length = 0 BitCount = 0 ID = 550
   2.234596 1  354             Rx   d 1 25   Length = 0 BitCount = 0 ID = 852
   2.240753 1  aa              Rx   d 8 1A 6F 1A 6F 1A 6F 1A 6F   Length = 0 BitCount = 0 ID = 170
   2.240998 1  b4              Rx   d 8 00 00 00 00 00 00 00 BC   Length = 0 BitCount = 0 ID = 180
   2.241171 1  220             Rx   d 4 00 00 00 26   Length = 0 BitCount = 0 ID = 544
   2.248756 1  aa              Rx   d 8 1A 6F 1A 6F 1A 6F 1A 6F   Length = 0 BitCount = 0 ID = 170
   2.251109 1  1c4             Rx   d 8 04 89 23 08 48 00 7F 4C   Length = 0 BitCount = 0 ID = 452
   2.251351 1  1d0             Rx   d 8 08 E9 09 00 00 00 00 D3   Length = 0 BitCount = 0 ID = 464
   2.254182 1  3f9             Rx   d 8 47 58 11 02 00 00 00 B6   Length = 0 BitCount = 0 ID = 1017
   2.256742 1  aa              Rx   d 8 1A 6F 1A 6F 1A 6F 1A 6F   Length = 0 BitCount = 0 ID = 170
   2.256917 1  ba              Rx   d 4 40 66 00 64   Length = 0 BitCount = 0 ID = 186
   2.257158 1  226             Rx   d 8 80 00 00 00 00 00 00 00   Length = 0 BitCount = 0 ID = 550
   2.260316 1  2c1             Rx   d 8 08 00 00 FF EB C0 00 7D   Length = 0 BitCount = 0 ID = 705
   2.263399 1  361             Rx   d 8 00 29 00 00 00 00 00 00   Length = 0 BitCount = 0 ID = 865
   2.264749 1  aa              Rx   d 8 1A 6F 1A 6F 1A 6F 1A 6F   Length = 0 BitCount = 0 ID = 170
   2.264990 1  b4              Rx   d 8 00 00 00 00 00 00 00 BC   Length = 0 BitCount = 0 ID = 180
   2.265160 1  220             Rx   d 4 00 00 00 26   Length = 0 BitCount = 0 ID = 544
   2.272757 1  aa              Rx   d 8 1A 6F 1A 6F 1A 6F 1A 6F   Length = 0 BitCount = 0 ID = 170
   2.274653 1  1c4             Rx   d 8 04 8B 23 08 48 00 7F 4E   Length = 0 BitCount = 0 ID = 452
   2.278634 1  3d0             Rx   d 1 00   Length = 0 BitCount = 0 ID = 976
   2.280146 1  3b1             Rx   d 8 00 00 02 0A 00 08 00 00   Length = 0 BitCount = 0 ID = 945
   2.280765 1  aa              Rx   d 8 1A 6F 1A 6F 1A 6F 1A 6F   Length = 0 BitCount = 0 ID = 170
   2.280924 1  ba              Rx   d 4 40 66 00 64   Length = 0 BitCount = 0 ID = 186
   2.281166 1  226             Rx   d 8 80 00 00 00 00 00 00 00   Length = 0 BitCount = 0 ID = 550
   2.282867 1  1d0             Rx   d 8 08 EE 09 00 00 00 00 D8   Length = 0 BitCount = 0 ID = 464
   2.288755 1  aa              Rx   d 8 1A 6F 1A 6F 1A 6F 1A 6F   Length = 0 BitCount = 0 ID = 170
   2.289015 1  b4              Rx   d 8 00 00 00 00 00 00 00 BC   Length = 0 BitCount = 0 ID = 180
   2.289188 1  220             Rx   d 4 00 00 00 26   Length = 0 BitCount = 0 ID = 544
   2.289427 1  3b7             Rx   d 8 00 00 00 00 00 00 00 00   Length = 0 BitCount = 0 ID = 951
   2.292090 1  2c1             Rx   d 8 08 00 00 FF F0 C0 00 82   Length = 0 BitCount = 0 ID = 705
   2.296761 1  aa              Rx   d 8 1A 6F 1A 6F 1A 6F 1A 6F   Length = 0 BitCount = 0 ID = 170
   2.298220 1  1c4             Rx   d 8 04 8A 23 08 48 00 7F 4D   Length = 0 BitCount = 0 ID = 452
   2.304777 1  aa              Rx   d 8 1A 6F 1A 6F 1A 6F 1A 6F   Length = 0 BitCount = 0 ID = 170
   2.304949 1  ba              Rx   d 4 40 66 00 64   Length = 0 BitCount = 0 ID = 186
